! Exportado en formato Magnitud (lineal) y Fase (grados)
# GHz S MA R 50
0.100000	9.916407e-01	-9.861199e+00	7.957031e-06	1.249201e+02	3.597806e-05	4.331233e+01	9.825571e-02	1.580499e+02
0.102500	9.919440e-01	-1.007292e+01	2.317574e-05	4.409800e+01	4.165354e-06	-9.015053e+01	9.894232e-02	1.495950e+02
0.105000	9.883914e-01	-1.064726e+01	1.342839e-05	1.244528e+02	2.454663e-05	-9.065869e+01	9.945012e-02	1.413879e+02
0.107500	9.925510e-01	-1.051252e+01	5.225013e-05	-1.738595e+01	1.510898e-05	-1.250965e+01	9.983237e-02	1.333356e+02
0.110000	9.914421e-01	-1.113492e+01	2.801938e-05	1.604219e+01	1.223683e-05	2.694827e+01	9.940247e-02	1.257981e+02
0.112500	9.891273e-01	-1.131271e+01	1.291207e-05	-7.359781e+00	2.325311e-05	-1.184044e+02	1.005610e-01	1.183947e+02
0.115000	9.889814e-01	-1.178358e+01	9.982838e-06	-4.254246e+01	2.333458e-05	1.508641e+02	1.026070e-01	1.110312e+02
0.117500	9.910230e-01	-1.178779e+01	1.787241e-05	4.815993e+01	1.261183e-05	1.426638e+02	1.049224e-01	1.033097e+02
0.120000	9.904873e-01	-1.216060e+01	2.621545e-05	6.250822e+01	1.543253e-05	1.148360e+02	1.065250e-01	9.591966e+01
0.122500	9.889508e-01	-1.251461e+01	2.106792e-05	6.802502e+01	7.577683e-06	3.724594e+01	1.089662e-01	8.857572e+01
0.125000	9.910538e-01	-1.279864e+01	1.483235e-05	1.777653e+02	1.616003e-05	-1.442489e+02	1.125099e-01	8.119240e+01
0.127500	9.874269e-01	-1.311540e+01	8.686850e-06	1.663764e+02	9.937812e-06	9.657322e+01	1.157357e-01	7.317052e+01
0.130000	9.879188e-01	-1.342152e+01	3.089355e-05	-1.166871e+02	1.609295e-05	-1.559937e+02	1.196662e-01	6.534502e+01
0.132500	9.914442e-01	-1.372485e+01	1.483927e-05	-4.766826e+01	1.542725e-05	3.284391e+01	1.235252e-01	5.682719e+01
0.135000	9.893824e-01	-1.418198e+01	1.707966e-06	-8.162854e+01	1.925742e-05	-8.520068e+01	1.280580e-01	4.834010e+01
0.137500	9.869427e-01	-1.457079e+01	1.523574e-05	1.450568e+02	2.281270e-05	-7.984203e+01	1.314114e-01	3.945676e+01
0.140000	9.833655e-01	-1.499281e+01	4.301142e-05	7.600348e+01	2.200155e-05	6.073102e+01	1.351145e-01	3.036730e+01
0.142500	9.818780e-01	-1.528542e+01	1.169720e-05	1.038614e+02	3.444925e-05	1.604880e+01	1.377304e-01	2.115486e+01
0.145000	9.767047e-01	-1.574375e+01	2.247300e-05	1.610252e+02	2.415792e-05	6.690234e+01	1.403904e-01	1.179050e+01
0.147500	9.719604e-01	-1.626812e+01	1.339314e-05	1.543811e+02	3.622895e-05	8.010618e+01	1.417340e-01	2.616276e+00
0.150000	9.665322e-01	-1.678485e+01	3.563994e-05	-1.459039e+01	8.933564e-06	1.675010e+02	1.428023e-01	-6.281710e+00
0.152500	9.660226e-01	-1.672213e+01	1.021855e-05	-3.176128e+01	2.771966e-05	6.574888e+00	1.441125e-01	-1.526123e+01
0.155000	9.602457e-01	-1.658047e+01	2.349429e-05	-5.468325e+00	9.259570e-06	-7.356184e+01	1.435597e-01	-2.381873e+01
0.157500	9.582426e-01	-1.710997e+01	2.677276e-05	-5.607003e+01	1.726973e-05	-9.988394e+01	1.449901e-01	-3.232529e+01
0.160000	9.532099e-01	-1.722424e+01	1.095297e-05	-1.455580e+02	2.509836e-06	2.014870e+00	1.442202e-01	-4.039778e+01
0.162500	9.470104e-01	-1.734830e+01	1.933451e-06	1.127778e+02	2.553293e-05	-1.257354e+02	1.453205e-01	-4.873342e+01
0.165000	9.414440e-01	-1.727902e+01	2.641906e-05	-9.886993e+01	9.028702e-06	-2.276943e+01	1.457371e-01	-5.668013e+01
0.167500	9.420387e-01	-1.712593e+01	2.127635e-05	-9.779882e+01	4.138603e-06	7.122154e+01	1.472640e-01	-6.460457e+01
0.170000	9.394497e-01	-1.735780e+01	1.452932e-05	-1.476882e+02	1.990119e-05	-1.251225e+02	1.486199e-01	-7.201430e+01
0.172500	9.416468e-01	-1.724990e+01	2.875543e-05	-1.059449e+02	2.289546e-05	-1.023165e+02	1.506035e-01	-7.954225e+01
0.175000	9.431102e-01	-1.744759e+01	3.131650e-05	-1.329610e+02	9.086270e-06	1.330340e+01	1.527555e-01	-8.697097e+01
0.177500	9.419199e-01	-1.764948e+01	1.520559e-05	-1.459148e+02	4.093874e-05	-1.318574e+02	1.559620e-01	-9.447222e+01
0.180000	9.467712e-01	-1.786435e+01	2.555443e-05	1.618794e+02	1.187941e-05	-1.336659e+02	1.588765e-01	-1.020686e+02
0.182500	9.483885e-01	-1.812361e+01	2.480097e-05	6.739469e+01	2.760973e-05	1.025623e+02	1.633712e-01	-1.102798e+02
0.185000	9.429162e-01	-1.826958e+01	8.380603e-06	5.957679e+00	9.645872e-06	-3.665028e+01	1.657593e-01	-1.181975e+02
0.187500	9.481300e-01	-1.822384e+01	3.453465e-05	-1.717764e+02	1.252024e-05	-1.211597e+02	1.698767e-01	-1.258580e+02
0.190000	9.472572e-01	-1.882137e+01	2.092120e-05	-4.692111e+01	2.394575e-05	-1.238396e+02	1.736921e-01	-1.344964e+02
0.192500	9.470414e-01	-1.894291e+01	1.652905e-05	-1.187774e+02	1.564769e-05	3.963661e+01	1.774739e-01	-1.428621e+02
0.195000	9.491280e-01	-1.964911e+01	1.359740e-05	-5.349742e+01	2.265227e-05	-3.659476e+01	1.799476e-01	-1.512573e+02
0.197500	9.534979e-01	-2.004264e+01	1.037808e-05	4.166962e+01	2.836326e-05	1.469970e+01	1.832136e-01	-1.597645e+02
0.200000	9.476101e-01	-2.000360e+01	1.928975e-05	-1.180688e+01	1.614149e-05	1.706393e+02	1.853864e-01	-1.682988e+02
0.202500	9.447741e-01	-2.064659e+01	1.569529e-05	-1.116114e+02	1.014975e-05	-3.757019e+01	1.867321e-01	-1.765896e+02
0.205000	9.463796e-01	-2.076797e+01	1.486890e-05	-1.199599e+02	1.070723e-05	-9.126594e+01	1.885243e-01	1.751016e+02
0.207500	9.419479e-01	-2.108096e+01	7.962076e-06	1.484564e+02	5.106142e-06	5.068816e+01	1.892132e-01	1.668883e+02
0.210000	9.399338e-01	-2.124800e+01	7.418424e-06	5.809374e+01	2.523106e-05	-6.302492e-01	1.902114e-01	1.589523e+02
0.212500	9.446010e-01	-2.169073e+01	1.491474e-05	7.905002e+01	1.306884e-05	2.901812e+01	1.920401e-01	1.508729e+02
0.215000	9.408499e-01	-2.210821e+01	1.338900e-05	-1.352565e+02	2.468851e-05	1.713564e+02	1.931210e-01	1.428286e+02
0.217500	9.417246e-01	-2.231722e+01	1.044586e-05	-1.391721e+02	2.633300e-05	-1.605179e+02	1.940002e-01	1.353314e+02
0.220000	9.386808e-01	-2.274854e+01	7.940628e-06	-1.255150e+02	2.344782e-05	-1.703139e+02	1.946030e-01	1.272635e+02
0.222500	9.362503e-01	-2.292443e+01	1.650729e-05	-6.517723e+01	1.585348e-05	-1.399423e+02	1.981839e-01	1.198062e+02
0.225000	9.387561e-01	-2.322207e+01	1.273709e-05	-1.041053e+02	2.023710e-05	5.402033e+01	1.983189e-01	1.116876e+02
0.227500	9.399997e-01	-2.368221e+01	1.766222e-06	1.166242e+02	2.646515e-05	1.255850e+02	2.010176e-01	1.038295e+02
0.230000	9.371511e-01	-2.404433e+01	2.604880e-05	8.906994e+01	2.696042e-05	-1.873913e+01	2.107269e-01	9.683684e+01
0.232500	9.366444e-01	-2.452924e+01	2.562951e-05	6.254478e+01	1.518854e-05	2.900581e+01	2.142443e-01	8.868182e+01
0.235000	9.361433e-01	-2.445292e+01	3.693628e-05	-3.324771e+01	1.355694e-05	-4.693331e+01	2.158837e-01	8.015951e+01
0.237500	9.363207e-01	-2.526712e+01	1.110884e-05	4.387057e+01	2.414132e-05	-1.035881e+02	2.196775e-01	7.204960e+01
0.240000	9.388306e-01	-2.571878e+01	2.390569e-05	1.548127e+02	1.568441e-05	1.411657e+02	2.223504e-01	6.371278e+01
0.242500	9.360820e-01	-2.611562e+01	2.993814e-05	-1.686034e+02	4.384327e-05	1.112328e+01	2.251576e-01	5.500782e+01
0.245000	9.354018e-01	-2.609857e+01	4.162523e-05	-2.323504e+00	1.844870e-05	1.266587e+02	2.273570e-01	4.609858e+01
0.247500	9.313901e-01	-2.703858e+01	2.598112e-05	-1.129281e+02	7.641497e-06	-4.811231e+01	2.299342e-01	3.740944e+01
0.250000	9.309015e-01	-2.774787e+01	2.498453e-05	-3.404786e+01	2.417013e-05	1.669480e+02	2.304846e-01	2.880904e+01
0.252500	9.258850e-01	-2.791985e+01	1.859343e-05	-1.160132e+02	3.792390e-06	-4.927231e+00	2.316045e-01	1.978992e+01
0.255000	9.261298e-01	-2.864934e+01	1.101406e-05	-1.505586e+02	1.346676e-05	4.787730e+01	2.316500e-01	1.114708e+01
0.257500	9.180337e-01	-2.928326e+01	1.930760e-06	-1.253939e+02	2.598668e-05	-1.342058e+02	2.319367e-01	2.726310e+00
0.260000	9.119434e-01	-2.990422e+01	2.847798e-05	-1.124255e-02	2.424041e-05	-1.095857e+02	2.305429e-01	-5.629088e+00
0.262500	9.061458e-01	-3.052659e+01	1.708135e-05	-9.239050e+01	9.010749e-06	1.526669e+02	2.307672e-01	-1.409873e+01
0.265000	9.028270e-01	-3.129690e+01	2.218471e-05	1.449676e+02	2.160846e-05	7.729709e+01	2.305197e-01	-2.200283e+01
0.267500	8.902294e-01	-3.202016e+01	6.771091e-06	2.248922e+01	1.298080e-05	-1.396486e+02	2.308493e-01	-2.959645e+01
0.270000	8.753521e-01	-3.268338e+01	2.206389e-05	-1.204465e+02	1.068943e-05	-8.111626e+01	2.324412e-01	-3.799985e+01
0.272500	8.614238e-01	-3.269412e+01	4.203038e-05	1.671641e+02	1.181150e-05	8.383108e+00	2.316912e-01	-4.557501e+01
0.275000	8.468821e-01	-3.282764e+01	2.355592e-05	-3.251636e+01	8.940583e-06	-2.037932e+01	2.358306e-01	-5.341333e+01
0.277500	8.296651e-01	-3.252680e+01	1.089724e-05	-1.655564e+02	4.502441e-05	-9.461286e+01	2.389580e-01	-6.103885e+01
0.280000	8.214238e-01	-3.216198e+01	1.066874e-05	1.069987e+02	1.391877e-05	-1.329027e+02	2.400720e-01	-6.886470e+01
0.282500	8.091645e-01	-3.137363e+01	1.841387e-05	9.363345e+01	6.710591e-06	-4.409049e+01	2.449761e-01	-7.707520e+01
0.285000	8.059760e-01	-3.035357e+01	2.988304e-05	-8.826765e+01	3.072216e-05	5.709901e+00	2.484822e-01	-8.466541e+01
0.287500	8.096152e-01	-2.995329e+01	1.976217e-05	-1.626862e+02	1.139196e-05	-5.053658e+01	2.540511e-01	-9.255084e+01
0.290000	8.097547e-01	-2.918296e+01	7.407452e-06	-4.154306e+01	1.677790e-05	5.441574e+01	2.577313e-01	-1.004411e+02
0.292500	8.201113e-01	-2.930642e+01	3.247908e-05	-1.408116e+02	2.762706e-10	1.216633e+02	2.630092e-01	-1.089027e+02
0.295000	8.257293e-01	-2.890384e+01	1.812974e-05	-1.420817e+02	2.363934e-05	7.292713e+01	2.667643e-01	-1.173243e+02
0.297500	8.333015e-01	-2.917281e+01	2.114606e-05	4.199021e+01	2.420829e-05	1.109074e+02	2.707691e-01	-1.254142e+02
0.300000	8.458217e-01	-2.937667e+01	2.441743e-05	1.045080e+02	2.166136e-05	1.890548e+01	2.758188e-01	-1.340631e+02
0.302500	8.575618e-01	-2.967963e+01	3.619129e-05	9.658149e+01	2.159380e-05	-1.302092e+01	2.789679e-01	-1.425184e+02
0.305000	8.659507e-01	-3.056413e+01	2.406503e-06	-1.193688e+02	2.900082e-05	-2.039152e+01	2.806801e-01	-1.512948e+02
0.307500	8.710693e-01	-3.093484e+01	7.379804e-06	-1.261063e+02	2.265790e-05	9.629598e+01	2.831156e-01	-1.597103e+02
0.310000	8.739909e-01	-3.194028e+01	9.526734e-06	7.753164e+01	2.622508e-05	-2.848542e+01	2.835600e-01	-1.681598e+02
0.312500	8.783959e-01	-3.260569e+01	2.272827e-05	-1.672018e+02	6.846915e-06	1.683744e+02	2.842172e-01	-1.762230e+02
0.315000	8.810870e-01	-3.350898e+01	1.602233e-05	-1.664218e+02	5.076058e-06	-1.649936e+02	2.841425e-01	1.754939e+02
0.317500	8.833347e-01	-3.430881e+01	1.767540e-05	1.091185e+02	2.916383e-05	-4.989129e+01	2.834818e-01	1.674023e+02
0.320000	8.827494e-01	-3.535324e+01	7.457564e-06	6.021252e+01	3.028128e-05	-1.397829e+02	2.835173e-01	1.597042e+02
0.322500	8.787596e-01	-3.639354e+01	1.186141e-05	-5.692257e+01	5.947763e-06	-1.472512e+02	2.819707e-01	1.514489e+02
0.325000	8.781983e-01	-3.689459e+01	3.844091e-06	3.344752e+01	3.291318e-05	-5.468735e+01	2.834722e-01	1.437352e+02
0.327500	8.786945e-01	-3.796522e+01	3.434206e-05	2.725022e+01	1.999139e-05	-1.786920e+02	2.837894e-01	1.363355e+02
0.330000	8.754481e-01	-3.905627e+01	1.741660e-05	-9.996148e+01	1.607377e-05	-5.000402e+01	2.828365e-01	1.285715e+02
0.332500	8.702808e-01	-3.994860e+01	1.877690e-05	-1.345901e+02	9.929486e-06	-7.752540e+01	2.856826e-01	1.209722e+02
0.335000	8.598208e-01	-4.102370e+01	1.053205e-05	-8.208629e+01	2.593855e-05	-4.790633e+00	2.874512e-01	1.131926e+02
0.337500	8.575121e-01	-4.169924e+01	9.616607e-06	-3.874907e+01	1.278403e-05	-1.493247e+02	2.868069e-01	1.051490e+02
0.340000	8.455748e-01	-4.245201e+01	3.632909e-05	-1.030801e+02	7.638751e-06	1.326877e+02	2.901978e-01	9.772066e+01
0.342500	8.448654e-01	-4.347493e+01	2.842080e-05	-1.527263e+02	2.334705e-05	-1.560709e+02	2.933987e-01	8.975566e+01
0.345000	8.347860e-01	-4.409946e+01	1.749486e-05	1.547132e+02	4.627205e-06	-9.862385e+01	2.954907e-01	8.162973e+01
0.347500	8.326997e-01	-4.559690e+01	3.334396e-05	-1.623424e+02	2.025880e-05	1.265623e+02	3.003350e-01	7.354919e+01
0.350000	8.246015e-01	-4.608262e+01	2.465558e-05	1.285158e+02	1.562856e-05	1.020874e+02	3.026412e-01	6.527751e+01
0.352500	8.138613e-01	-4.700572e+01	2.038603e-05	8.759116e+01	4.785993e-06	9.468517e+01	3.062035e-01	5.710025e+01
0.355000	8.082641e-01	-4.839485e+01	1.824830e-05	1.475687e+02	8.906674e-06	1.122876e+02	3.086733e-01	4.869365e+01
0.357500	7.994434e-01	-4.966963e+01	3.464235e-05	5.830712e+01	2.492418e-05	8.858685e+01	3.114412e-01	4.030229e+01
0.360000	7.896693e-01	-5.079519e+01	3.155827e-05	6.152449e+01	3.931848e-05	2.013384e+01	3.135712e-01	3.154759e+01
0.362500	7.793784e-01	-5.180094e+01	3.465370e-05	7.488588e+01	5.861025e-05	1.981012e+01	3.176463e-01	2.335941e+01
0.365000	7.666946e-01	-5.301835e+01	2.875182e-05	3.615127e+01	2.489348e-05	-2.030617e+01	3.175393e-01	1.464658e+01
0.367500	7.542723e-01	-5.428231e+01	3.597986e-05	-2.706135e+00	5.599161e-05	-2.312951e+01	3.158785e-01	6.000311e+00
0.370000	7.342759e-01	-5.542819e+01	5.206172e-05	-1.796302e+01	3.096000e-05	-2.478885e+01	3.182028e-01	-2.616536e+00
0.372500	7.210454e-01	-5.641486e+01	4.965669e-05	-2.005949e+01	4.094088e-05	-3.234303e+01	3.190960e-01	-1.122826e+01
0.375000	7.055238e-01	-5.733417e+01	5.598774e-05	-2.001926e+01	3.187995e-05	-6.281665e+01	3.184855e-01	-1.947581e+01
0.377500	7.007245e-01	-5.856807e+01	8.973214e-06	-1.143997e+01	4.441326e-05	-6.604288e+01	3.215829e-01	-2.778703e+01
0.380000	6.816273e-01	-6.072539e+01	2.026197e-05	-6.606346e+01	3.769504e-05	-1.128298e+02	3.201749e-01	-3.626205e+01
0.382500	6.657714e-01	-6.191963e+01	3.919536e-05	-9.398396e+01	4.688620e-05	-8.479403e+01	3.222447e-01	-4.415394e+01
0.385000	6.367691e-01	-6.305794e+01	2.353533e-05	-8.345150e+01	3.015617e-05	-1.306792e+02	3.228599e-01	-5.253327e+01
0.387500	6.237624e-01	-6.409061e+01	2.839248e-05	-1.111949e+02	3.773038e-05	-1.356420e+02	3.260147e-01	-6.063232e+01
0.390000	6.054612e-01	-6.519944e+01	5.073808e-05	-1.506872e+02	3.178096e-05	-1.093344e+02	3.255709e-01	-6.883987e+01
0.392500	5.901957e-01	-6.705972e+01	2.253810e-05	-1.723728e+02	1.563555e-05	-5.704352e+01	3.286117e-01	-7.655870e+01
0.395000	5.655676e-01	-6.840756e+01	2.069107e-05	-1.557469e+02	2.451300e-05	-1.311274e+02	3.338518e-01	-8.465005e+01
0.397500	5.478328e-01	-7.015188e+01	2.721983e-05	-1.519584e+02	2.733586e-05	1.762259e+02	3.330891e-01	-9.286739e+01
0.400000	5.274361e-01	-7.185964e+01	1.160187e-05	1.648772e+02	1.639646e-05	-1.403882e+02	3.375451e-01	-1.008761e+02
0.402500	5.053381e-01	-7.374519e+01	3.573016e-05	1.317690e+02	2.427696e-05	-1.672657e+02	3.391843e-01	-1.090137e+02
0.405000	4.842564e-01	-7.650497e+01	3.061849e-05	-1.668633e+02	4.040232e-05	-1.780291e+02	3.429833e-01	-1.171670e+02
0.407500	4.586915e-01	-7.971731e+01	2.715087e-05	-1.652630e+02	1.194025e-05	1.256426e+02	3.449245e-01	-1.252024e+02
0.410000	4.278280e-01	-8.361107e+01	2.256571e-05	1.349097e+02	1.872932e-05	1.667363e+02	3.467949e-01	-1.331030e+02
0.412500	3.909137e-01	-8.798005e+01	4.380106e-05	1.163733e+02	3.576467e-05	9.956632e+01	3.490890e-01	-1.413136e+02
0.415000	3.492456e-01	-9.351934e+01	2.948653e-05	8.662482e+01	2.020577e-05	3.728873e+01	3.506235e-01	-1.492898e+02
0.417500	2.911577e-01	-9.952946e+01	2.108576e-05	6.352322e+01	6.006741e-05	5.936654e+01	3.529143e-01	-1.571911e+02
0.420000	2.300873e-01	-1.049735e+02	4.230528e-05	6.744999e+01	5.447969e-05	5.243428e+01	3.526703e-01	-1.650667e+02
0.422500	1.651135e-01	-1.111569e+02	2.489436e-05	3.476024e+01	6.062888e-05	3.273607e+01	3.566568e-01	-1.732532e+02
0.425000	1.002657e-01	-1.137505e+02	3.290502e-05	-4.343730e+00	6.834763e-05	3.046273e+00	3.589590e-01	1.788503e+02
0.427500	4.569271e-02	-1.091535e+02	1.780074e-05	-2.867027e+01	6.561322e-05	-3.227883e+01	3.600892e-01	1.710582e+02
0.430000	5.864728e-03	1.401704e+01	2.220682e-05	-2.017075e+01	3.125332e-05	-4.515212e+01	3.626914e-01	1.629281e+02
0.432500	5.967410e-02	5.652225e+01	3.491855e-06	-1.009982e+01	4.657187e-05	-6.758496e+01	3.626745e-01	1.550609e+02
0.435000	1.198687e-01	5.180037e+01	1.514607e-05	-1.145227e+02	4.364915e-05	-6.455032e+01	3.638477e-01	1.474429e+02
0.437500	1.719363e-01	4.424493e+01	4.070430e-05	-4.898549e+01	2.623316e-05	-5.176143e+01	3.671978e-01	1.391350e+02
0.440000	2.070637e-01	3.853453e+01	2.046552e-05	-9.845238e+01	5.472459e-05	-1.286160e+02	3.652286e-01	1.317908e+02
0.442500	2.344361e-01	3.684007e+01	2.005499e-05	-4.788168e+01	3.436093e-05	-1.132602e+02	3.689809e-01	1.231578e+02
0.445000	2.658021e-01	3.691201e+01	2.668610e-05	-1.469954e+02	4.502919e-05	-1.370752e+02	3.704410e-01	1.156109e+02
0.447500	3.049656e-01	3.552268e+01	2.412214e-05	-3.000389e+01	3.781502e-05	-1.542124e+02	3.726207e-01	1.072314e+02
0.450000	3.352645e-01	3.438296e+01	3.236708e-05	-1.064576e+02	4.251088e-05	-1.636153e+02	3.695921e-01	9.937599e+01
0.452500	3.642279e-01	3.333390e+01	3.644677e-05	-1.256810e+02	3.536423e-05	1.608188e+02	3.740158e-01	9.096777e+01
0.455000	4.054681e-01	3.284444e+01	2.579804e-05	-1.535182e+02	2.152745e-05	-1.444053e+02	3.756172e-01	8.279358e+01
0.457500	4.480181e-01	3.060198e+01	2.557770e-05	-1.133109e+02	3.590552e-05	1.004973e+02	3.737459e-01	7.464968e+01
0.460000	4.789631e-01	2.769572e+01	3.197980e-05	1.668088e+02	3.539161e-05	1.559184e+02	3.754679e-01	6.624556e+01
0.462500	5.107157e-01	2.515093e+01	4.382193e-05	1.084765e+02	2.982412e-05	7.526337e+01	3.762990e-01	5.813254e+01
0.465000	5.379771e-01	2.206757e+01	2.779620e-05	1.646991e+02	2.514388e-05	7.777688e+01	3.784460e-01	4.980162e+01
0.467500	5.640390e-01	1.868787e+01	4.190635e-05	1.434255e+02	4.409428e-05	5.633142e+01	3.785266e-01	4.180386e+01
0.470000	5.692125e-01	1.527533e+01	4.625277e-05	8.931701e+01	5.462478e-05	1.013988e+02	3.846033e-01	3.381742e+01
0.472500	5.777253e-01	1.326252e+01	3.875886e-05	1.019174e+02	4.400110e-05	8.208737e+01	3.863024e-01	2.573812e+01
0.475000	5.831862e-01	1.148810e+01	3.240653e-05	7.222947e+01	4.017286e-05	4.262306e+01	3.868477e-01	1.755302e+01
0.477500	5.870715e-01	9.877544e+00	1.763391e-05	5.956974e+01	8.075297e-05	2.082364e+01	3.889629e-01	9.547318e+00
0.480000	5.892270e-01	8.653439e+00	5.457642e-05	3.653747e+01	3.541497e-05	4.044799e+01	3.896540e-01	1.059077e+00
0.482500	5.928371e-01	7.632070e+00	4.413149e-05	4.864642e+01	5.583946e-05	-1.775924e+01	3.918724e-01	-6.820623e+00
0.485000	5.947084e-01	6.529488e+00	6.554531e-05	1.583491e+01	5.543398e-05	-1.581740e+01	3.941850e-01	-1.551461e+01
0.487500	5.953559e-01	5.792710e+00	5.179882e-05	-2.272732e+01	6.047849e-05	-2.023096e+01	3.951699e-01	-2.372034e+01
0.490000	5.957134e-01	5.264320e+00	4.178666e-05	-3.798452e+01	6.229948e-05	-2.724536e+01	3.976516e-01	-3.156818e+01
0.492500	6.005010e-01	5.365514e+00	4.103784e-05	-9.595823e+01	7.508817e-05	-9.032690e+01	4.001514e-01	-4.002377e+01
0.495000	6.129566e-01	3.976885e+00	5.703715e-05	-1.048268e+02	6.100599e-05	-9.584602e+01	4.043794e-01	-4.803754e+01
0.497500	6.140543e-01	3.672965e+00	3.988875e-05	-8.085657e+01	2.998138e-05	-1.100978e+02	4.046298e-01	-5.661435e+01
0.500000	6.044403e-01	3.322805e+00	5.216794e-05	-9.304139e+01	4.253315e-05	-1.091745e+02	4.074230e-01	-6.502433e+01
0.502500	6.150204e-01	3.126052e+00	6.069630e-05	-1.076276e+02	5.812810e-05	-1.400567e+02	4.106481e-01	-7.308542e+01
0.505000	6.196954e-01	2.737992e+00	1.693175e-05	-1.522002e+02	3.259210e-05	-1.647176e+02	4.144867e-01	-8.098154e+01
0.507500	6.183703e-01	2.259866e+00	3.427781e-05	-1.625516e+02	3.922271e-05	-1.644220e+02	4.157871e-01	-8.950376e+01
0.510000	6.187413e-01	1.791937e+00	1.920260e-05	7.760442e+01	3.288855e-05	1.722109e+02	4.200623e-01	-9.795939e+01
0.512500	6.192792e-01	1.846882e+00	2.589716e-05	1.470803e+02	3.774249e-05	1.637062e+02	4.178247e-01	-1.059833e+02
0.515000	6.233549e-01	1.279198e+00	3.548023e-05	1.407887e+02	4.948689e-05	1.433880e+02	4.193245e-01	-1.142296e+02
0.517500	6.226414e-01	1.575626e+00	2.046106e-05	1.324765e+02	2.950919e-05	8.002219e+01	4.214477e-01	-1.218866e+02
0.520000	6.185853e-01	1.371057e+00	8.635026e-06	1.341960e+02	1.956619e-05	9.457838e+01	4.243311e-01	-1.300477e+02
0.522500	6.163540e-01	1.949322e+00	1.133810e-05	-1.090422e+02	1.587898e-05	6.508380e+01	4.233782e-01	-1.384349e+02
0.525000	6.209703e-01	2.661888e+00	2.523910e-05	5.691390e+01	2.528257e-05	1.146354e+02	4.261623e-01	-1.460141e+02
