! Version 1.0
! Name        :	Dipolo_gris_VNA_LAB-S11-VF.s1p
! Measurement : [new]
! Date        :	07-05-26 11:55:41
! Generated by:	MiQVNA
# HZ S DB R 50
! Freq	ReS11	ImS11
400000000	-5.13838101223844	-71.1182971840509
401000000	-5.14897492269683	-72.0616574424533
402000000	-5.13807377965864	-72.8783306989029
403000000	-5.14539894856302	-73.6890155122481
404000000	-5.1508391674762	-75.3516762042437
405000000	-5.19658670299908	-76.4851544519924
406000000	-5.2531191402257	-77.864512860688
407000000	-5.32447662906372	-79.4510335244393
408000000	-5.40421139186209	-80.914742175432
409000000	-5.50920888844635	-82.965801098167
410000000	-5.71773733076351	-84.9678525766773
411000000	-5.93254016689184	-86.8282940165695
412000000	-6.19312794730915	-87.617901650269
413000000	-6.45346395408838	-88.5183222525435
414000000	-6.66444133421211	-89.2309034680006
415000000	-6.79069117020989	-90.5201576295121
416000000	-7.00656224092845	-91.450604134952
417000000	-7.1857502139632	-92.5708246533842
418000000	-7.33085162200851	-93.656001752107
419000000	-7.46470586092473	-94.9540595765857
420000000	-7.57513898069168	-96.4046304593008
421000000	-7.72933382479073	-98.3972769851172
422000000	-7.9348278301466	-100.715325768329
423000000	-8.27028546983817	-102.841911810364
424000000	-8.5697707481884	-105.239584871905
425000000	-8.98091651159639	-107.941773666513
426000000	-9.45717970538203	-109.840645239197
427000000	-9.89757020875101	-111.361524199329
428000000	-10.3784134187791	-112.638569512118
429000000	-10.7302349674413	-114.273075474862
430000000	-11.1920928558239	-115.912312943441
431000000	-11.5987684676009	-117.320655966187
432000000	-12.138828418157	-118.346224490054
433000000	-12.501424774155	-119.203838702812
434000000	-12.6633349376038	-120.862519156054
435000000	-12.9853135712631	-124.344972204588
436000000	-13.3401030288485	-128.117408044347
437000000	-13.7604373349566	-132.065091893757
438000000	-14.5564690827848	-136.903075759801
439000000	-15.4761623712209	-141.682064343891
440000000	-16.3022034383857	-144.873845423204
441000000	-17.4151757616992	-149.554077662494
442000000	-18.3839433875253	-153.693302046248
443000000	-19.0814951662158	-156.372921708865
444000000	-19.4795926033239	-160.556263106025
445000000	-19.6219230400944	-166.725985780628
446000000	-19.8596014807555	-175.826658232679
447000000	-20.1087014295098	174.276053374903
448000000	-20.397808790525	159.384354431109
449000000	-20.6317247565141	146.872562254015
450000000	-20.9002343046851	134.01639108483
451000000	-20.8146965507338	120.352996599004
452000000	-20.5547400048174	109.978134406679
453000000	-20.4527739181875	101.224446063151
454000000	-20.5851887257171	93.5381075277148
455000000	-20.3058480143629	88.1435724465204
456000000	-20.3786378482615	86.7749464154221
457000000	-19.9213636229222	86.7454248546009
458000000	-19.0098145234913	84.8408834046457
459000000	-18.6295817752077	82.8319992605258
460000000	-18.5250632804426	81.4075962411076
461000000	-17.6090490440172	83.0972882206984
462000000	-17.2589917328875	84.2809697130471
463000000	-16.7009846977238	86.260170998571
464000000	-15.485872178857	86.2260717282206
465000000	-14.5872559731049	85.4094634073241
466000000	-13.9269370605647	83.7714194090128
467000000	-13.1829398340663	80.949418090356
468000000	-12.4508544259099	78.3932260882832
469000000	-12.0669571297733	76.3525319168467
470000000	-11.4267913258395	74.5126513567553
471000000	-10.9966870390864	72.9663103721406
472000000	-10.6213871878887	71.1333498804043
473000000	-10.2185081534221	69.6631792276007
474000000	-9.69433825268666	68.4799370885819
475000000	-9.30785823218083	66.6952088291358
476000000	-9.00692779815088	64.5298283529887
477000000	-8.32834635188268	62.1077904470791
478000000	-8.05177775021043	59.1489682595464
479000000	-7.82243795513187	56.1741098770653
480000000	-7.56821644157164	53.717938851491
481000000	-7.46412463979631	50.9622763062239
482000000	-7.44994846355524	48.4467916084329
483000000	-7.4789348321097	46.4670328481548
484000000	-7.65656396687367	45.1022896102974
485000000	-7.73104264796753	44.333493030387
486000000	-7.67798811719625	44.6316972957387
487000000	-7.52130635098166	45.1034379284228
488000000	-7.38328735599239	45.1274225258105
489000000	-7.3490832923367	44.5484004861921
490000000	-7.13121062831939	44.3447635925967
491000000	-6.9481138619647	43.6484848712248
492000000	-6.76696875855418	43.0705792250817
493000000	-6.52603319495872	42.3667748064584
494000000	-6.34093957379557	41.4436307711396
495000000	-6.04409472157256	40.5472309023552
496000000	-5.90661318669355	39.2083618972605
497000000	-5.75678185329973	38.2824582594226
498000000	-5.75128482762961	36.9027059918246
499000000	-5.66780652942539	36.0114061106271
500000000	-5.51018067898726	34.9671543329178
501000000	-5.45010207908071	33.8949121045927
502000000	-5.44843742032857	32.7893133481581
503000000	-5.35569856991063	31.9805822627546
504000000	-5.2518518308995	31.169114441508
505000000	-5.27496095230527	29.8615101438336
506000000	-5.14852971654304	29.4117298001001
507000000	-5.12350416778228	28.6786061705929
508000000	-5.12990782392458	27.9546383629538
509000000	-5.15177540637366	26.9549771115987
510000000	-5.16877804473508	26.4142361757321
511000000	-5.1750223479072	25.9883155896324
512000000	-5.20298066214038	25.7138408716836
513000000	-5.11309997134805	25.6686406564879
514000000	-5.12874795245733	25.2387435798225
515000000	-5.10629498111509	24.8065563060811
516000000	-5.09455877428309	24.5189353932123
517000000	-5.00774594746234	24.542098862275
518000000	-5.10094682292824	23.8631624351925
519000000	-5.0288024332047	24.006424030655
520000000	-4.99026019265979	23.8351669593381
521000000	-5.00750686777874	23.5020341788764
522000000	-4.89442688691586	23.7314056314357
523000000	-4.82596398771641	23.4657274900599
524000000	-4.8233241364522	23.0469496565196
525000000	-4.78670200751842	22.9331423423378
526000000	-4.60682724517989	23.5179854751409
527000000	-4.65056035956456	22.9058453876282
528000000	-4.58092367426919	22.791887377621
529000000	-4.4598644605696	22.7106446179058
530000000	-4.39399020074136	22.4844109085143
531000000	-4.43147629522972	21.8283985027649
532000000	-4.38043814482057	21.632992050947
533000000	-4.3265060545234	21.8762274022695
534000000	-4.33432041907561	21.7150768797424
535000000	-4.23162722837618	22.1518354030626
536000000	-4.18684769269955	22.0834049574007
537000000	-4.0595323015704	22.2391101858495
538000000	-3.93949525721864	22.2319409509646
539000000	-3.81395446284893	22.1103979784466
540000000	-3.73800743874526	21.5611707473546
541000000	-3.62349107529415	21.0118517695042
542000000	-3.47667597048967	20.8432654898835
543000000	-3.37310794699396	20.3695250428551
544000000	-3.23541992019698	20.0271030433486
545000000	-3.23180740275552	19.0263552643826
546000000	-3.14221845378859	18.7247642228984
547000000	-3.08099075453897	18.0079099389642
548000000	-3.00307213215598	17.6028902346277
549000000	-3.00823054114681	16.7724306682928
550000000	-3.00193449213754	16.1533563222594
551000000	-2.90155108684522	15.7614251075688
552000000	-2.87066552896142	15.2503540107895
553000000	-2.83801205343848	14.8471734107618
554000000	-2.86080082872716	14.0651200402418
555000000	-2.79670160626806	14.13635023466
556000000	-2.76723471059326	13.6305712797784
557000000	-2.81333199154015	12.8859712713863
558000000	-2.71501480703845	12.700597486778
559000000	-2.69314522088384	12.2781605407289
560000000	-2.64498909817293	11.7107138465657
561000000	-2.65336196371311	11.0261579586365
562000000	-2.5893372823098	10.9089292186861
563000000	-2.61799085211313	10.2513537050731
564000000	-2.63757745649232	9.91156776247339
565000000	-2.6225011727311	9.71959905265054
566000000	-2.63983854479243	9.31734506425664
567000000	-2.63316513621864	8.91894588593516
568000000	-2.65872263115256	8.44402605135647
569000000	-2.61810832298953	8.3936599177568
570000000	-2.67105996724002	7.81545680561763
571000000	-2.64325930519765	8.05774647399343
572000000	-2.63052974265459	7.89639847630901
573000000	-2.59873635168013	8.0364222670041
574000000	-2.63318015244473	7.56217645799253
575000000	-2.56211944026944	7.35814327640904
576000000	-2.58427157149598	6.84404957653927
577000000	-2.52682390641184	6.85132770902086
578000000	-2.48784345557379	6.62293302020524
579000000	-2.48616054512255	6.30074876336131
580000000	-2.49283701656569	6.03306921878737
581000000	-2.44743057967321	5.93231486291816
582000000	-2.39721965614832	6.00712726305143
583000000	-2.45848887992381	5.48867869724214
584000000	-2.4568770827398	5.41055729317522
585000000	-2.42288363796224	5.36671244754179
586000000	-2.40773161619231	5.21540403782827
587000000	-2.32714810492629	5.05628504326912
588000000	-2.28475201478101	4.831617209281
589000000	-2.23621634352885	4.49330745388792
590000000	-2.17808195971036	4.31661537865022
591000000	-2.0917587904417	4.45165532963553
592000000	-2.13241434467967	3.50707351931246
593000000	-2.05078159035152	3.43668992378676
594000000	-2.00849280479933	3.04568283688433
595000000	-2.01482691153205	2.21765652215465
596000000	-2.00095814853907	1.73674841745006
597000000	-1.94658739329717	1.59232722479081
598000000	-1.94518104991378	1.12400603457429
599000000	-1.95858793752239	0.733975056949256
600000000	-1.98978076083146	0.346582608618588
