! Exportado en formato Magnitud (lineal) y Fase (grados)
# GHz S MA R 50
0.100000	9.914864e-01	-1.095473e+01	2.274393e-05	1.112673e+02	3.655346e-05	-1.270427e+02	9.865172e-02	1.580423e+02
0.102500	9.934613e-01	-1.123400e+01	3.371292e-05	1.393736e+02	1.579424e-05	1.125442e+02	9.865667e-02	1.492969e+02
0.105000	9.960988e-01	-1.149032e+01	5.821208e-06	2.439901e+01	8.993167e-06	1.200194e+02	9.841891e-02	1.414172e+02
0.107500	9.951715e-01	-1.170207e+01	4.284054e-06	6.435966e+01	8.638352e-06	1.627886e+01	9.996497e-02	1.329913e+02
0.110000	9.958944e-01	-1.233609e+01	5.620480e-06	-1.048825e+02	3.030372e-05	-8.972883e+01	9.933174e-02	1.259145e+02
0.112500	9.916199e-01	-1.244427e+01	2.116822e-05	2.959450e+01	1.070562e-05	-8.527444e+01	1.011235e-01	1.179262e+02
0.115000	9.919256e-01	-1.265347e+01	1.366077e-05	-5.799048e+01	1.932718e-05	-4.586098e+01	1.025914e-01	1.106129e+02
0.117500	9.910022e-01	-1.299118e+01	1.084524e-05	-7.991321e+01	2.508910e-05	-1.158336e+02	1.040058e-01	1.035286e+02
0.120000	9.917359e-01	-1.335803e+01	1.553678e-05	1.718500e+02	8.687194e-06	-1.828150e+01	1.065598e-01	9.617348e+01
0.122500	9.902512e-01	-1.366537e+01	2.356372e-05	1.726244e+02	1.297827e-05	1.553819e+01	1.092236e-01	8.879526e+01
0.125000	9.934429e-01	-1.400124e+01	2.236969e-05	-9.453702e+01	3.079722e-05	-1.600000e+02	1.122408e-01	8.116323e+01
0.127500	9.879338e-01	-1.432557e+01	2.204470e-05	-1.698655e+02	3.234064e-05	3.126030e+01	1.156879e-01	7.326202e+01
0.130000	9.913621e-01	-1.476690e+01	1.480626e-05	-1.782879e+02	8.239530e-06	-5.151213e+01	1.199234e-01	6.504411e+01
0.132500	9.923752e-01	-1.506875e+01	3.792214e-05	1.435286e+02	8.324358e-06	1.030746e+02	1.232833e-01	5.679181e+01
0.135000	9.897776e-01	-1.534359e+01	1.978350e-05	-1.482628e+02	4.486168e-06	-1.355807e+01	1.278211e-01	4.830512e+01
0.137500	9.882178e-01	-1.578353e+01	8.434647e-07	8.045105e+00	1.668779e-05	4.420859e+01	1.314244e-01	3.937460e+01
0.140000	9.817684e-01	-1.614380e+01	6.044308e-06	1.679490e+02	2.380277e-06	-2.208657e+01	1.349782e-01	3.043500e+01
0.142500	9.811172e-01	-1.669549e+01	1.195356e-05	-4.699376e+01	1.219512e-05	-4.655184e+01	1.378836e-01	2.096717e+01
0.145000	9.740816e-01	-1.724394e+01	7.662840e-06	-1.197025e+01	3.123475e-05	-1.712084e+02	1.402302e-01	1.185831e+01
0.147500	9.801178e-01	-1.744087e+01	2.583588e-06	5.976549e+01	3.383413e-06	1.302746e+02	1.422854e-01	2.695340e+00
0.150000	9.739752e-01	-1.767874e+01	1.706768e-05	9.596662e+01	1.065938e-05	-3.676828e+01	1.431128e-01	-6.486246e+00
0.152500	9.690436e-01	-1.793852e+01	1.122805e-05	-9.165409e+01	4.088697e-05	-1.301438e+02	1.437124e-01	-1.532368e+01
0.155000	9.682814e-01	-1.820767e+01	1.628993e-05	1.344186e+02	2.168928e-05	-1.240360e+02	1.443225e-01	-2.417223e+01
0.157500	9.652536e-01	-1.838511e+01	5.646502e-06	-7.228826e+01	2.389175e-05	1.423193e+02	1.447562e-01	-3.249482e+01
0.160000	9.664762e-01	-1.877135e+01	2.386404e-05	-9.457981e+01	2.925315e-05	1.746698e+01	1.444974e-01	-4.080998e+01
0.162500	9.620741e-01	-1.884703e+01	6.191407e-06	2.694085e+01	2.379983e-05	6.686617e+01	1.464380e-01	-4.872393e+01
0.165000	9.564297e-01	-1.904950e+01	2.752656e-05	-1.250311e+02	9.472133e-06	-1.046046e+02	1.456353e-01	-5.648475e+01
0.167500	9.573292e-01	-1.905990e+01	7.961310e-06	1.218345e+02	9.370098e-06	-3.159762e+01	1.458131e-01	-6.419380e+01
0.170000	9.548883e-01	-1.936264e+01	2.172205e-05	-1.121928e+02	1.379645e-05	-1.097548e+02	1.475777e-01	-7.187043e+01
0.172500	9.552402e-01	-1.951050e+01	1.189922e-05	5.262964e+01	2.143406e-05	-7.719198e+01	1.506638e-01	-7.951404e+01
0.175000	9.575160e-01	-1.962115e+01	1.524746e-05	-1.234571e+02	1.655777e-05	-4.260429e+01	1.532159e-01	-8.718007e+01
0.177500	9.538917e-01	-1.974162e+01	3.084823e-05	-1.587742e+02	1.557316e-05	-1.734377e+02	1.560335e-01	-9.479621e+01
0.180000	9.585858e-01	-2.032611e+01	1.081762e-05	1.461499e+02	1.812494e-05	1.039647e+01	1.593762e-01	-1.025580e+02
0.182500	9.538543e-01	-2.044512e+01	2.008780e-05	1.313366e+02	3.042749e-06	6.930181e+01	1.628022e-01	-1.102336e+02
0.185000	9.586986e-01	-2.081647e+01	6.150320e-06	6.398010e+01	1.307926e-05	6.546792e+01	1.662420e-01	-1.184069e+02
0.187500	9.568210e-01	-2.097270e+01	2.236210e-05	1.373207e+02	2.500693e-05	1.249815e+02	1.700294e-01	-1.264863e+02
0.190000	9.647962e-01	-2.109398e+01	1.069932e-05	8.119772e+01	3.296989e-05	1.052083e+01	1.734112e-01	-1.345134e+02
0.192500	9.605291e-01	-2.179871e+01	1.423401e-05	3.828334e+01	8.499262e-06	-1.671089e+02	1.772200e-01	-1.427256e+02
0.195000	9.653118e-01	-2.219294e+01	2.263881e-05	7.420160e+01	1.888002e-05	8.604567e+01	1.801993e-01	-1.513233e+02
0.197500	9.591629e-01	-2.293146e+01	1.592170e-05	-1.259931e+02	1.020038e-05	-5.600380e+01	1.823983e-01	-1.598081e+02
0.200000	9.615569e-01	-2.279220e+01	1.950432e-05	-1.450039e+02	1.382978e-05	1.752216e+02	1.851060e-01	-1.679092e+02
0.202500	9.542801e-01	-2.324286e+01	1.659853e-05	1.698755e+02	2.114474e-05	1.797369e+01	1.866305e-01	-1.764844e+02
0.205000	9.622540e-01	-2.377172e+01	4.371566e-06	-4.185883e+01	2.307452e-05	2.401179e+01	1.877155e-01	1.751459e+02
0.207500	9.614926e-01	-2.397467e+01	1.947510e-05	-1.597174e+01	3.621315e-05	-1.561750e+01	1.887051e-01	1.667953e+02
0.210000	9.586985e-01	-2.460139e+01	2.235824e-05	-4.156536e+01	1.877037e-05	-5.850237e+01	1.902868e-01	1.587787e+02
0.212500	9.577459e-01	-2.490494e+01	1.800234e-06	-3.178349e+01	2.365635e-05	-1.723714e+02	1.912442e-01	1.507189e+02
0.215000	9.564895e-01	-2.548748e+01	1.177149e-05	-1.145272e+02	1.887305e-05	-1.317275e+02	1.917433e-01	1.433444e+02
0.217500	9.598145e-01	-2.587987e+01	1.386815e-05	3.413082e+01	1.702252e-05	4.723711e+01	1.929512e-01	1.348270e+02
0.220000	9.567525e-01	-2.631495e+01	1.554794e-05	-8.264212e+01	2.404523e-05	-1.289599e+02	1.943625e-01	1.272891e+02
0.222500	9.572344e-01	-2.686649e+01	8.500439e-06	1.994181e+01	8.581622e-06	1.439509e+02	1.979411e-01	1.195312e+02
0.225000	9.548997e-01	-2.708752e+01	2.387118e-05	-1.481491e+02	1.784982e-05	-7.853997e+01	1.994451e-01	1.115637e+02
0.227500	9.526731e-01	-2.757142e+01	9.524440e-06	9.716184e+01	1.855188e-05	-2.912053e+01	2.013846e-01	1.034866e+02
0.230000	9.562482e-01	-2.828911e+01	1.284814e-05	-1.380645e+02	6.019160e-06	-9.895477e+01	2.100454e-01	9.668309e+01
0.232500	9.543173e-01	-2.845984e+01	9.139775e-06	5.223767e+00	8.954711e-06	-2.032435e+00	2.145015e-01	8.870787e+01
0.235000	9.537954e-01	-2.944064e+01	1.317706e-05	1.695593e+02	1.891725e-05	6.524043e+01	2.158808e-01	8.030733e+01
0.237500	9.565045e-01	-3.003511e+01	1.544035e-05	-1.414233e+02	1.824338e-05	9.595419e+01	2.197063e-01	7.237796e+01
0.240000	9.503503e-01	-3.049297e+01	5.665154e-05	-1.703927e+02	1.218932e-05	3.103620e+01	2.222156e-01	6.359682e+01
0.242500	9.536743e-01	-3.130649e+01	2.187777e-05	-8.673723e+01	3.173144e-05	1.480001e+00	2.254048e-01	5.483384e+01
0.245000	9.456117e-01	-3.127897e+01	1.513033e-05	-6.047953e+01	2.195103e-05	4.971168e+01	2.276858e-01	4.609562e+01
0.247500	9.440350e-01	-3.282804e+01	3.355982e-05	1.066819e+02	1.941500e-05	-6.239751e+01	2.293082e-01	3.730836e+01
0.250000	9.436842e-01	-3.325737e+01	3.450554e-05	9.008969e+01	2.782113e-05	-1.316167e+01	2.301861e-01	2.864199e+01
0.252500	9.396808e-01	-3.358272e+01	1.760949e-05	-1.005070e+02	2.483537e-05	-1.725943e+01	2.312427e-01	1.984228e+01
0.255000	9.422365e-01	-3.453624e+01	2.274422e-05	5.683441e+01	1.972040e-05	1.741941e+02	2.309493e-01	1.118521e+01
0.257500	9.344238e-01	-3.562730e+01	4.437967e-05	1.591401e+01	1.456657e-05	2.584747e+01	2.318655e-01	2.591265e+00
0.260000	9.298961e-01	-3.656378e+01	4.358987e-05	-8.464508e+01	1.533709e-05	2.004423e+00	2.307282e-01	-5.632168e+00
0.262500	9.206196e-01	-3.750618e+01	2.546239e-05	1.086788e+02	1.642674e-05	-8.065516e+01	2.312783e-01	-1.391889e+01
0.265000	9.109302e-01	-3.858426e+01	2.621543e-05	3.797157e+01	6.018710e-06	8.229151e+00	2.317820e-01	-2.182802e+01
0.267500	8.992112e-01	-3.936589e+01	1.899748e-06	-7.677617e+01	2.778282e-05	-1.894271e+01	2.290911e-01	-2.989493e+01
0.270000	8.838040e-01	-4.030688e+01	2.324794e-05	4.015765e+01	1.064087e-05	-1.579788e+02	2.327571e-01	-3.783678e+01
0.272500	8.662461e-01	-4.096167e+01	1.628867e-05	-1.265842e+02	2.296223e-05	-1.223668e+02	2.338610e-01	-4.590146e+01
0.275000	8.476076e-01	-4.158026e+01	4.531116e-05	5.254984e+00	2.540695e-05	-3.122511e+00	2.349686e-01	-5.334070e+01
0.277500	8.207137e-01	-4.122200e+01	1.637181e-05	8.446034e+01	2.907281e-05	-1.243457e+02	2.392113e-01	-6.123933e+01
0.280000	8.081631e-01	-4.127670e+01	2.566430e-05	1.269581e+02	1.338852e-05	-1.399661e+01	2.410192e-01	-6.920027e+01
0.282500	7.939035e-01	-4.076947e+01	1.224310e-05	-7.588447e+01	4.375958e-06	-5.099931e+01	2.444443e-01	-7.657271e+01
0.285000	7.897448e-01	-3.992406e+01	1.892756e-05	-7.659967e+01	2.055703e-05	-1.423695e+02	2.482138e-01	-8.472331e+01
0.287500	7.814335e-01	-3.947266e+01	1.457099e-05	1.077702e+02	6.103569e-06	-8.483050e+01	2.530675e-01	-9.235675e+01
0.290000	7.817082e-01	-3.872409e+01	1.862839e-06	-1.737646e+02	1.033831e-05	-7.653397e+01	2.585523e-01	-1.008961e+02
0.292500	7.898069e-01	-3.829401e+01	1.115038e-05	1.635744e+02	2.375650e-05	1.617988e+01	2.640344e-01	-1.086203e+02
0.295000	8.012495e-01	-3.772799e+01	2.279660e-05	1.752052e+02	2.796852e-05	-2.992933e+00	2.681814e-01	-1.169922e+02
0.297500	8.071904e-01	-3.776327e+01	1.476756e-05	-1.411619e+02	4.108115e-05	-6.261121e+01	2.728066e-01	-1.255623e+02
0.300000	8.232845e-01	-3.890327e+01	5.144112e-06	-9.795846e+01	1.488036e-05	-2.641109e+01	2.763220e-01	-1.341163e+02
0.302500	8.281613e-01	-3.972096e+01	2.486960e-05	9.382635e+01	1.358249e-05	3.436891e+01	2.789990e-01	-1.427165e+02
0.305000	8.338668e-01	-4.067225e+01	8.578988e-06	4.896592e+01	4.175406e-05	1.426870e+01	2.810067e-01	-1.511219e+02
0.307500	8.359141e-01	-4.167905e+01	2.612357e-05	-8.686504e+01	2.049148e-05	-1.877340e+01	2.824719e-01	-1.595465e+02
0.310000	8.311130e-01	-4.268014e+01	1.634946e-05	3.273503e+01	1.952174e-05	-9.927943e+01	2.833885e-01	-1.683416e+02
0.312500	8.337207e-01	-4.343526e+01	1.775083e-05	-2.112426e+01	5.820133e-06	-6.003081e+01	2.839481e-01	-1.764940e+02
0.315000	8.360280e-01	-4.452527e+01	1.133682e-05	-1.034289e+02	1.879740e-05	-1.075944e+00	2.834123e-01	1.754823e+02
0.317500	8.377915e-01	-4.571873e+01	7.860611e-06	-4.686757e+01	1.682102e-05	1.151338e+01	2.834076e-01	1.671744e+02
0.320000	8.368234e-01	-4.714582e+01	3.578762e-05	-1.216782e+00	2.926517e-05	-4.458483e+01	2.809770e-01	1.595357e+02
0.322500	8.295299e-01	-4.881546e+01	1.737756e-05	-3.946982e+01	8.733114e-06	-7.841266e+01	2.817344e-01	1.520429e+02
0.325000	8.229364e-01	-4.972596e+01	5.833414e-06	-8.780865e+01	8.629580e-06	-1.446916e+02	2.820928e-01	1.438448e+02
0.327500	8.239209e-01	-5.128219e+01	1.417826e-05	-8.031927e+01	1.286142e-05	-7.415319e+01	2.839218e-01	1.360495e+02
0.330000	8.147260e-01	-5.331811e+01	1.843105e-05	-1.408750e+01	3.324562e-05	-5.174577e+01	2.844090e-01	1.286728e+02
0.332500	8.026894e-01	-5.494017e+01	2.233196e-05	-1.744910e+02	1.401642e-05	1.645906e+02	2.855073e-01	1.207222e+02
0.335000	7.852272e-01	-5.633031e+01	1.712879e-05	-7.105867e+01	1.550516e-05	-1.134715e+02	2.870368e-01	1.131154e+02
0.337500	7.720444e-01	-5.758266e+01	2.227898e-05	-1.720853e+02	2.414552e-05	1.106523e+02	2.873458e-01	1.052082e+02
0.340000	7.669516e-01	-5.957191e+01	2.342013e-05	-1.385822e+02	2.150733e-05	1.717443e+02	2.919374e-01	9.785270e+01
0.342500	7.503846e-01	-6.131069e+01	2.725904e-05	1.673616e+02	4.631721e-06	1.541331e+02	2.957614e-01	8.992315e+01
0.345000	7.305755e-01	-6.270496e+01	3.208960e-05	1.618416e+02	1.561013e-05	1.176949e+02	2.948064e-01	8.137627e+01
0.347500	7.167578e-01	-6.465475e+01	1.916103e-05	4.001560e+01	1.496203e-05	1.182336e+02	3.005976e-01	7.353364e+01
0.350000	7.082065e-01	-6.643961e+01	2.641954e-05	1.748670e+02	6.628505e-06	9.847962e+01	3.009618e-01	6.557769e+01
0.352500	6.886681e-01	-6.916046e+01	3.011573e-05	1.545888e+02	3.822690e-05	1.136935e+02	3.057800e-01	5.709659e+01
0.355000	6.637736e-01	-7.202571e+01	1.028089e-05	-1.455225e+02	7.896048e-06	-2.122472e+00	3.078234e-01	4.870587e+01
0.357500	6.355080e-01	-7.489667e+01	1.996308e-05	-9.098905e+01	8.464948e-06	1.251396e+00	3.114268e-01	4.019053e+01
0.360000	6.043448e-01	-7.755686e+01	1.596285e-05	4.015567e+01	3.990797e-05	4.138969e+01	3.122794e-01	3.161099e+01
0.362500	5.716198e-01	-7.963195e+01	1.399116e-05	7.024792e+01	2.174011e-05	7.302288e+01	3.181161e-01	2.325706e+01
0.365000	5.276331e-01	-8.211454e+01	1.879478e-05	1.251832e+02	1.712745e-05	7.899070e+01	3.165155e-01	1.444959e+01
0.367500	4.943871e-01	-8.306340e+01	3.205549e-05	1.230991e+02	1.229425e-05	6.651263e+00	3.170390e-01	5.884004e+00
0.370000	4.674217e-01	-8.482318e+01	2.516360e-05	2.235821e+01	1.274205e-05	5.360501e+01	3.181794e-01	-2.644235e+00
0.372500	4.357536e-01	-8.748326e+01	1.441258e-05	-7.742220e+01	1.075770e-05	3.454428e+00	3.188808e-01	-1.120239e+01
0.375000	3.976444e-01	-9.050789e+01	3.175496e-05	-9.444243e-01	3.646005e-05	1.396241e+01	3.192614e-01	-1.955731e+01
0.377500	3.552487e-01	-9.338337e+01	4.570941e-05	-1.496270e+01	1.912077e-05	-2.639781e+01	3.202401e-01	-2.768225e+01
0.380000	3.164545e-01	-9.568943e+01	3.671718e-05	-4.198764e+01	5.372092e-05	-3.329887e+01	3.207467e-01	-3.629531e+01
0.382500	2.815499e-01	-9.782139e+01	1.890079e-05	6.145735e+01	2.960743e-05	-5.894414e+01	3.227408e-01	-4.429893e+01
0.385000	2.375488e-01	-1.035292e+02	2.973687e-05	-5.667026e+01	3.803434e-05	-1.149360e+02	3.244885e-01	-5.241072e+01
0.387500	1.799612e-01	-1.092430e+02	2.260645e-05	-8.708126e+01	3.320722e-05	-1.021293e+02	3.260556e-01	-6.037451e+01
0.390000	1.255221e-01	-1.118454e+02	1.119040e-05	-7.271566e+01	4.349254e-05	-1.046766e+02	3.272092e-01	-6.875033e+01
0.392500	7.286131e-02	-1.142704e+02	4.550040e-05	-8.220293e+01	3.246083e-05	-1.246001e+02	3.296671e-01	-7.682052e+01
0.395000	2.019263e-02	-1.150110e+02	3.099083e-05	-9.209076e+01	2.603735e-05	4.050304e+01	3.332597e-01	-8.455619e+01
0.397500	3.573354e-02	4.732536e+01	2.177601e-05	-1.428880e+02	2.769615e-05	-1.254355e+02	3.338161e-01	-9.284540e+01
0.400000	8.551120e-02	4.569947e+01	3.732744e-05	-1.486705e+02	2.618400e-05	1.643760e+02	3.364508e-01	-1.010072e+02
0.402500	1.287842e-01	4.217871e+01	3.224457e-05	1.740849e+02	1.193774e-05	-1.452350e+02	3.381804e-01	-1.091544e+02
0.405000	1.690278e-01	4.171020e+01	1.088512e-05	-1.627650e+02	2.345880e-05	-5.275569e+00	3.418457e-01	-1.170866e+02
0.407500	2.145333e-01	4.042494e+01	1.731817e-05	-1.776052e+02	3.968551e-05	1.340397e+02	3.448935e-01	-1.250232e+02
0.410000	2.601421e-01	3.729872e+01	4.219779e-05	-1.601893e+02	8.732327e-06	1.351426e+02	3.469642e-01	-1.330147e+02
0.412500	2.985637e-01	3.319302e+01	1.590264e-05	-1.387301e+02	1.950440e-05	1.218262e+02	3.487055e-01	-1.412920e+02
0.415000	3.351232e-01	2.912327e+01	3.738727e-05	1.016872e+02	3.295130e-05	4.024016e+01	3.513207e-01	-1.494007e+02
0.417500	3.649052e-01	2.533705e+01	1.946896e-05	1.185192e+02	3.136281e-05	7.649197e+01	3.530205e-01	-1.574453e+02
0.420000	3.822742e-01	2.218532e+01	1.071766e-05	-1.271025e+01	3.374705e-05	1.272226e+01	3.556348e-01	-1.651075e+02
0.422500	4.021695e-01	2.018406e+01	3.776379e-05	7.825777e+01	1.497081e-05	-1.065795e+00	3.575363e-01	-1.731862e+02
0.425000	4.178335e-01	1.795193e+01	6.803277e-05	6.812926e+01	4.774342e-05	1.117579e+01	3.575411e-01	1.787235e+02
0.427500	4.312064e-01	1.632638e+01	1.241414e-05	5.395713e+01	1.236277e-05	-5.422649e+01	3.595386e-01	1.709902e+02
0.430000	4.442182e-01	1.488020e+01	2.616184e-05	4.909312e+00	4.310850e-05	2.481380e+00	3.611501e-01	1.629492e+02
0.432500	4.548362e-01	1.395792e+01	4.701710e-05	7.873725e+01	2.669491e-05	1.625237e+01	3.629376e-01	1.551545e+02
0.435000	4.686910e-01	1.318840e+01	4.419752e-05	1.521415e+00	2.729494e-05	-3.732424e+01	3.652478e-01	1.474014e+02
0.437500	4.845183e-01	1.223642e+01	6.393762e-05	2.705038e+00	3.499845e-05	-3.314711e+01	3.644741e-01	1.391167e+02
0.440000	4.994986e-01	1.096049e+01	5.401619e-05	-3.703349e+01	2.557814e-05	-5.632614e+01	3.661488e-01	1.313625e+02
0.442500	5.159100e-01	9.090684e+00	4.110897e-05	-5.052482e+01	4.174761e-05	-1.110599e+02	3.687729e-01	1.234797e+02
0.445000	5.213248e-01	7.308064e+00	4.428769e-05	-7.857949e+01	3.011241e-05	-9.434570e+01	3.692984e-01	1.150043e+02
0.447500	5.219381e-01	6.378297e+00	3.809257e-05	-7.844062e+01	8.428197e-06	-8.835998e+01	3.701163e-01	1.071934e+02
0.450000	5.279282e-01	5.413329e+00	6.369577e-05	-1.293491e+02	2.862284e-05	-1.545189e+02	3.714128e-01	9.916744e+01
0.452500	5.243694e-01	3.984648e+00	4.331182e-05	-1.122855e+02	2.778652e-05	-1.760871e+02	3.743084e-01	9.084555e+01
0.455000	5.296023e-01	3.313336e+00	4.925255e-05	-1.157026e+02	5.502002e-05	1.578773e+02	3.765216e-01	8.285309e+01
0.457500	5.239916e-01	2.911061e+00	4.743564e-05	-1.523865e+02	4.024616e-05	1.395405e+02	3.745909e-01	7.437520e+01
0.460000	5.200165e-01	3.394692e+00	3.152381e-05	-1.577585e+02	3.487623e-05	1.117753e+02	3.766498e-01	6.613696e+01
0.462500	5.244016e-01	3.790568e+00	4.350008e-05	1.568910e+02	2.594837e-05	5.288578e+01	3.773862e-01	5.814785e+01
0.465000	5.319911e-01	3.943945e+00	2.686848e-05	1.298956e+02	2.927282e-05	8.944948e+01	3.771655e-01	4.963705e+01
0.467500	5.366925e-01	4.069364e+00	2.304906e-05	1.152832e+02	2.592596e-05	6.653655e+01	3.788063e-01	4.163622e+01
0.470000	5.408548e-01	3.788485e+00	6.040134e-05	6.851291e+01	1.725757e-05	4.704035e+01	3.838816e-01	3.404063e+01
0.472500	5.464989e-01	3.909638e+00	1.570224e-05	3.294452e+01	5.348889e-05	2.736992e+01	3.862953e-01	2.574115e+01
0.475000	5.541738e-01	4.042006e+00	4.094504e-05	8.975759e+01	3.779398e-05	3.913742e+01	3.870038e-01	1.737047e+01
0.477500	5.616755e-01	4.006657e+00	4.138378e-05	7.325827e+01	6.844308e-05	1.009704e+01	3.880656e-01	9.327502e+00
0.480000	5.698052e-01	3.906343e+00	3.467589e-05	6.309911e+01	2.455537e-05	-1.714842e+01	3.905207e-01	1.150774e+00
0.482500	5.763086e-01	3.798334e+00	5.094695e-05	2.397111e+00	4.621948e-05	-2.056902e+01	3.908135e-01	-6.915803e+00
0.485000	5.830725e-01	3.667061e+00	2.407352e-05	-2.119634e+01	4.323371e-05	-1.960749e+01	3.943988e-01	-1.512447e+01
0.487500	5.932514e-01	3.270404e+00	3.083224e-05	4.756099e+01	3.743204e-05	-4.954282e+01	3.937993e-01	-2.346386e+01
0.490000	6.010299e-01	2.680371e+00	4.188123e-05	-7.000884e+01	5.562952e-05	-4.466629e+01	4.002067e-01	-3.154596e+01
0.492500	5.978887e-01	2.056372e+00	4.236927e-05	-3.651775e+01	2.109961e-05	-1.389409e+02	3.991923e-01	-3.994494e+01
0.495000	5.955340e-01	1.474067e+00	3.480102e-05	-5.185122e+01	1.842147e-05	-1.118261e+02	4.055175e-01	-4.845043e+01
0.497500	5.950045e-01	1.434228e+00	4.303167e-05	-6.994062e+01	2.567073e-05	-1.104179e+02	4.047701e-01	-5.649803e+01
0.500000	5.963449e-01	1.835793e+00	4.991963e-05	-1.027264e+02	4.735360e-05	-1.357681e+02	4.086156e-01	-6.446841e+01
0.502500	6.039373e-01	2.751512e+00	3.642242e-05	-1.319674e+02	3.026926e-05	-1.627057e+02	4.123884e-01	-7.304814e+01
0.505000	6.124072e-01	2.704849e+00	4.788752e-05	-1.469398e+02	2.966414e-05	-1.620543e+02	4.141233e-01	-8.102913e+01
0.507500	6.245182e-01	2.955099e+00	1.667047e-05	-1.652511e+02	2.083205e-05	-1.360651e+02	4.143531e-01	-8.949782e+01
0.510000	6.342579e-01	3.097402e+00	4.082225e-05	-1.680712e+02	2.478213e-05	1.561110e+02	4.186376e-01	-9.798243e+01
0.512500	6.451245e-01	3.075037e+00	1.503556e-05	1.730590e+02	2.034988e-05	1.071496e+02	4.173594e-01	-1.059886e+02
0.515000	6.550197e-01	2.857472e+00	2.026759e-05	1.797788e+02	1.912782e-05	8.598793e+01	4.181851e-01	-1.141578e+02
0.517500	6.635302e-01	2.430374e+00	4.212422e-06	1.726212e+00	1.637072e-05	1.170578e+02	4.217592e-01	-1.221733e+02
0.520000	6.778071e-01	1.834469e+00	5.269434e-05	1.768754e+02	1.946496e-05	5.046892e+01	4.226947e-01	-1.297055e+02
0.522500	6.851352e-01	1.148518e+00	3.058334e-05	1.569906e+02	2.160971e-05	7.699390e+01	4.231434e-01	-1.383680e+02
0.525000	6.906460e-01	5.620526e-01	3.398777e-05	1.099136e+02	3.469157e-05	1.944089e+01	4.260469e-01	-1.462359e+02
