! Version 1.0
! Name        :	Dipolo_azul_2Recortado_VNA_LAB-S11-VF.s1p
! Measurement : [new]
! Date        :	07-05-26 12:02:50
! Generated by:	MiQVNA
# HZ S DB R 50
! Freq	ReS11	ImS11
400000000	-5.20414484745691	-95.7293967903627
401000000	-5.20680162730325	-97.8848483650716
402000000	-5.23520277165167	-100.02219599829
403000000	-5.27244129794542	-102.161018641428
404000000	-5.32319141246967	-105.116089323856
405000000	-5.45278413145625	-107.589578789612
406000000	-5.60178978531244	-110.174009540974
407000000	-5.72118451745438	-112.886908073388
408000000	-5.86254947383179	-115.499132850653
409000000	-6.00664537577076	-118.581996743738
410000000	-6.1900623807685	-121.773486651254
411000000	-6.39117111819152	-124.867556141533
412000000	-6.6509963233724	-127.774160528706
413000000	-6.96611134301043	-130.705433818834
414000000	-7.18866856231362	-133.37118813267
415000000	-7.3490096681654	-136.264604554765
416000000	-7.63242387237086	-139.558831330626
417000000	-7.8462105167809	-142.299945641615
418000000	-8.10868750467604	-145.673806473587
419000000	-8.26026643416981	-148.80389629215
420000000	-8.36897219870685	-151.5982481946
421000000	-8.46008486910343	-155.591038321392
422000000	-8.55107586088013	-160.175120481827
423000000	-8.69948111670739	-164.793457063849
424000000	-8.88093713740236	-169.1598856182
425000000	-9.11140336799304	-174.697445336316
426000000	-9.32166788492137	-179.455544815674
427000000	-9.53820571795193	176.415746114793
428000000	-9.71987070066766	171.638228437732
429000000	-9.74379109166506	167.204084599021
430000000	-9.80994990149688	162.800284068438
431000000	-9.85674871281535	157.875668305193
432000000	-9.87689209917365	152.884823536953
433000000	-9.83297615034767	148.77295921536
434000000	-9.71344258816658	144.43600444761
435000000	-9.52029350938564	139.542972381807
436000000	-9.40429022622393	134.389832812168
437000000	-9.42634868125819	129.989747061215
438000000	-9.18782528418863	124.083403405282
439000000	-9.02471262180739	119.15786592116
440000000	-9.05421525668704	115.868948074168
441000000	-8.96009137844507	111.627518685191
442000000	-8.78111198519123	107.511463213057
443000000	-8.75640342691501	104.313902237825
444000000	-8.64235694332771	101.360394641087
445000000	-8.40370535547108	98.414418708706
446000000	-8.32113177005821	95.8940335751022
447000000	-8.12138442297325	92.7701831540125
448000000	-7.92566432021059	90.0036647363174
449000000	-7.68572907488642	86.5749127414576
450000000	-7.69076698124596	83.7065652655312
451000000	-7.40634483409813	80.7030466748018
452000000	-7.26035182775838	77.9181064402498
453000000	-7.33072774137569	75.4086637753416
454000000	-7.38074657887935	73.0891177927617
455000000	-7.242715440884	71.4451942963209
456000000	-7.29799054440697	70.2280603526821
457000000	-7.22428140770474	69.3528998931551
458000000	-7.00712568844092	68.1087161475339
459000000	-7.01808488837983	66.7240945092591
460000000	-7.02022031316168	65.8823277889874
461000000	-6.67375192481046	65.8309671721034
462000000	-6.66279578490205	65.0060849326355
463000000	-6.55719631249098	64.1747635209851
464000000	-6.19983457535317	62.8378336111919
465000000	-6.02922162168542	61.6374559819365
466000000	-6.02823554338495	59.8579331562739
467000000	-5.86436856189764	58.6799095113785
468000000	-5.70881755813165	57.6900161309475
469000000	-5.59101127605626	56.9999389668091
470000000	-5.4056821954759	56.3214924935534
471000000	-5.13285194379887	55.7391846466439
472000000	-5.10403401404567	54.2483810912832
473000000	-4.89755500060094	53.0186578881046
474000000	-4.69778258502012	51.9831309147593
475000000	-4.57136636777188	50.5078175722688
476000000	-4.58190717015933	49.021238645706
477000000	-4.31726399187998	47.7098910306564
478000000	-4.17385221587138	46.3468985354388
479000000	-4.19775067290716	44.8690260191397
480000000	-4.13780703142381	43.615061606152
481000000	-4.10061944265808	42.4741902336069
482000000	-4.11512921111539	41.2955152495263
483000000	-4.09193200011356	40.4631795493872
484000000	-4.11209978277543	39.8926980420048
485000000	-4.1035467440828	39.2948252216718
486000000	-4.05719484280225	39.0774651749048
487000000	-3.85533890336217	39.0155504157951
488000000	-3.85385828927092	38.0536107995319
489000000	-3.76411070015717	37.2393976436708
490000000	-3.73361156714266	36.7622915792402
491000000	-3.63005406587831	36.0028072218382
492000000	-3.58518204453989	35.0716322599306
493000000	-3.4430197932929	34.4050555730762
494000000	-3.38453741307243	33.6032844559226
495000000	-3.24363982329327	33.0229965916771
496000000	-3.23341391096346	32.1562335886751
497000000	-3.15643418931037	31.3302058292838
498000000	-3.19464211962697	30.3803794452277
499000000	-3.12942556794958	29.7285640545417
500000000	-3.01655784218561	29.169593914135
501000000	-2.99315345388456	28.2308306540488
502000000	-3.03551039624519	27.2265767967661
503000000	-2.96036625688588	26.6405467537979
504000000	-2.87623841635038	26.1116025577804
505000000	-2.95331418672029	24.888687408669
506000000	-2.85169142877499	24.4899307682435
507000000	-2.76434811676835	23.8234267787614
508000000	-2.83778370065354	22.9193005934663
509000000	-2.80061376936316	22.1216553779239
510000000	-2.85599284044709	21.5044474886546
511000000	-2.84621446923677	20.9262661831093
512000000	-2.91491637375585	20.5603645881458
513000000	-2.82334492965712	20.5317921591436
514000000	-2.87811115953635	20.0386638907725
515000000	-2.89897296941327	19.6341894840775
516000000	-2.84250179628139	19.5794349944163
517000000	-2.81729292032495	19.3001295543354
518000000	-2.90225710445212	18.6505985503901
519000000	-2.84296558196097	18.5319266575545
520000000	-2.819840301495	18.3073061115799
521000000	-2.86755593837676	17.7991029833999
522000000	-2.78966621609408	17.8517448690886
523000000	-2.70854214520028	17.5627700905279
524000000	-2.73122363374335	16.9976237952957
525000000	-2.67027408230078	16.7611198828851
526000000	-2.57733297839857	16.9850163339544
527000000	-2.61647498741881	16.3430424681083
528000000	-2.61673802180494	15.8614605853752
529000000	-2.5417400478692	15.8577531500544
530000000	-2.51727820945071	15.5144778943961
531000000	-2.60264782135198	14.6418891928977
532000000	-2.55103691660512	14.5890828375856
533000000	-2.51619277481239	14.6060356118142
534000000	-2.52523728978819	14.2504826065344
535000000	-2.45033627842314	14.4828702034978
536000000	-2.37692852232568	14.4338622097721
537000000	-2.36903741116641	14.1136348618829
538000000	-2.29586445876617	14.021981185209
539000000	-2.15462754343386	14.034960545465
540000000	-2.18524424584563	13.1085593036401
541000000	-2.14396997119813	12.458525970156
542000000	-2.04624905741029	12.4347389198516
543000000	-1.98530810184633	12.1261507267676
544000000	-1.95032249180492	11.4790407680595
545000000	-1.91406874739606	10.989613421653
546000000	-1.872684288002	10.6567929771078
547000000	-1.85952703147416	9.88261355052907
548000000	-1.81763774111951	9.49520263949532
549000000	-1.81957869775697	8.90152354272728
550000000	-1.84371774700602	8.32047074121826
551000000	-1.79428038430843	7.97406683886291
552000000	-1.76997459365631	7.73164397048058
553000000	-1.78473538618814	7.09275952175038
554000000	-1.82831975226297	6.48093499656357
555000000	-1.80033252877331	6.45831589023979
556000000	-1.77833616513725	6.22905892156391
557000000	-1.84506913994174	5.44854848606059
558000000	-1.80767836696034	5.11385245034046
559000000	-1.78589499481543	4.88146593978109
560000000	-1.76545708612273	4.32854734996971
561000000	-1.77759043792725	3.92742760053637
562000000	-1.77628829832164	3.65676017765762
563000000	-1.81775109453382	3.34274884633237
564000000	-1.84346071063553	2.97265239076326
565000000	-1.83184375975982	3.04877229295533
566000000	-1.85722929283021	2.63867644659304
567000000	-1.8910593445773	2.08421216230483
568000000	-1.92693471369629	1.96086234755515
569000000	-1.8872785046086	1.97196811727451
570000000	-1.90927222717887	1.47771999362646
571000000	-1.91299095753405	1.42142222792907
572000000	-1.88149775823749	1.40525750206654
573000000	-1.89662974735177	1.22537123363565
574000000	-1.91482656430681	0.952518733992176
575000000	-1.8938128035174	0.853678666426476
576000000	-1.96977536871091	0.304593775548057
577000000	-1.9413220963761	0.460351907149162
578000000	-1.90761767305513	0.408764359389675
579000000	-1.92352414777743	0.156133301480242
580000000	-1.94465952158196	-0.173949882375302
581000000	-1.91867235739744	-4.98290671496776E-02
582000000	-1.91519583700808	-0.196317031918328
583000000	-1.96355387062343	-0.456802161293102
584000000	-1.99360249710469	-0.627537893384918
585000000	-1.98572111786888	-0.415877158146927
586000000	-1.98979362512377	-0.429685062729111
587000000	-1.94194577037688	-0.461613372147374
588000000	-1.92049543342169	-0.428471429083932
589000000	-1.88892640371996	-0.679186375446098
590000000	-1.83227690300136	-0.623820498681827
591000000	-1.78267485047476	-0.432624116567543
592000000	-1.82149856155729	-1.25361211976165
593000000	-1.75524728950896	-1.12884591333273
594000000	-1.70995809986041	-1.19435242169652
595000000	-1.7501414120688	-2.12137465401844
596000000	-1.67964291028259	-1.96347631735484
597000000	-1.62699380841959	-2.05164291154587
598000000	-1.60906054533198	-2.29640743359541
599000000	-1.63924262854123	-2.71066484760048
600000000	-1.66406727347656	-2.98715682548317
