! Exportado en formato Magnitud (lineal) y Fase (grados)
# GHz S MA R 50
0.100000	9.935054e-01	-1.028580e+01	6.314447e-06	-1.368884e+01	3.401248e-05	-8.515272e+01	9.834228e-02	1.578424e+02
0.102500	9.936921e-01	-1.005680e+01	3.537753e-05	-2.882400e+01	1.459033e-05	3.589885e+01	9.856260e-02	1.495375e+02
0.105000	9.940346e-01	-1.068276e+01	4.383609e-05	1.212301e+02	2.448049e-05	5.295399e+01	9.925697e-02	1.410699e+02
0.107500	9.933521e-01	-1.056840e+01	1.332437e-05	-5.963618e+01	4.458424e-05	-8.505805e+01	9.957413e-02	1.333732e+02
0.110000	9.986554e-01	-1.129620e+01	7.607695e-06	1.160396e+02	3.799883e-05	-1.771369e+02	1.005225e-01	1.250862e+02
0.112500	9.956518e-01	-1.171427e+01	2.130022e-05	-5.491807e+01	1.912120e-05	3.333634e+01	1.010537e-01	1.182241e+02
0.115000	9.919819e-01	-1.190591e+01	1.000970e-05	-1.498362e+02	1.300822e-05	-1.247380e+02	1.030557e-01	1.105883e+02
0.117500	9.934384e-01	-1.220675e+01	7.585089e-06	1.363187e+01	1.276645e-05	-1.057071e+02	1.044753e-01	1.035613e+02
0.120000	9.952109e-01	-1.245982e+01	1.322216e-05	2.024618e+01	3.673107e-05	6.049837e+01	1.066596e-01	9.594100e+01
0.122500	9.944641e-01	-1.284596e+01	5.899649e-06	9.526240e+01	2.209175e-05	-1.681699e+02	1.090749e-01	8.912630e+01
0.125000	9.941356e-01	-1.310839e+01	2.659193e-05	-1.681855e+02	2.324940e-05	-1.015539e+02	1.122749e-01	8.128018e+01
0.127500	9.909190e-01	-1.353979e+01	1.280077e-05	-4.240226e+01	1.136587e-05	-1.736017e+02	1.154804e-01	7.326269e+01
0.130000	9.933519e-01	-1.374508e+01	2.724424e-05	-6.846919e+01	1.786905e-05	1.476452e+02	1.197043e-01	6.525291e+01
0.132500	9.959889e-01	-1.402262e+01	2.943314e-05	1.477975e+02	2.899975e-05	-2.962438e+01	1.241555e-01	5.700035e+01
0.135000	9.939458e-01	-1.425342e+01	1.919279e-06	1.353367e+02	4.234285e-06	1.038811e+02	1.278093e-01	4.825455e+01
0.137500	9.880302e-01	-1.456719e+01	1.976439e-05	-8.525094e+01	2.357069e-05	4.523372e+00	1.317541e-01	3.940287e+01
0.140000	9.889818e-01	-1.498438e+01	2.594703e-05	1.611264e+01	1.950556e-05	-1.032068e+02	1.352676e-01	3.042671e+01
0.142500	9.842011e-01	-1.524109e+01	3.227200e-05	1.729789e+00	1.369190e-05	-6.978515e+01	1.378890e-01	2.106140e+01
0.145000	9.852002e-01	-1.589957e+01	1.550492e-05	-3.955528e+01	2.546270e-05	8.807032e+00	1.398711e-01	1.202340e+01
0.147500	9.880420e-01	-1.627988e+01	1.674344e-05	-4.447102e+00	1.479302e-05	4.396054e+01	1.420364e-01	2.721633e+00
0.150000	9.846161e-01	-1.609029e+01	8.798924e-06	1.068373e+01	9.772127e-06	-3.239811e+01	1.432651e-01	-6.642097e+00
0.152500	9.809107e-01	-1.644245e+01	1.454886e-05	-5.250877e+01	1.580641e-05	-1.180961e+02	1.440330e-01	-1.515663e+01
0.155000	9.764113e-01	-1.674092e+01	2.525742e-05	-3.423151e+01	2.671928e-05	-9.188959e+01	1.443178e-01	-2.368262e+01
0.157500	9.759761e-01	-1.726382e+01	1.503064e-05	-2.552349e+01	1.465225e-05	5.336028e+01	1.446182e-01	-3.218256e+01
0.160000	9.699021e-01	-1.729982e+01	2.725974e-05	-2.952880e+01	2.258883e-05	-1.685279e+02	1.447805e-01	-4.038352e+01
0.162500	9.679284e-01	-1.747063e+01	9.306777e-06	-6.568297e+01	2.756637e-05	-3.765427e+01	1.461064e-01	-4.854585e+01
0.165000	9.647568e-01	-1.760216e+01	1.965346e-05	-1.077515e+02	1.404785e-05	2.025507e+01	1.459610e-01	-5.701681e+01
0.167500	9.659864e-01	-1.758662e+01	1.313656e-05	-9.652141e+01	4.630723e-06	-8.428654e+01	1.472255e-01	-6.418916e+01
0.170000	9.647922e-01	-1.774605e+01	1.265905e-05	-1.081803e+02	2.511041e-05	-6.807664e+00	1.486950e-01	-7.159665e+01
0.172500	9.652948e-01	-1.796867e+01	2.985440e-05	-1.751684e+02	1.212785e-05	1.419456e+02	1.512575e-01	-7.950570e+01
0.175000	9.675658e-01	-1.802006e+01	7.850054e-06	2.509964e+01	9.517229e-06	1.030530e+02	1.530803e-01	-8.716610e+01
0.177500	9.668081e-01	-1.834687e+01	1.770427e-05	-1.451161e+02	1.561157e-05	-1.668765e+02	1.563966e-01	-9.457192e+01
0.180000	9.696663e-01	-1.857409e+01	2.324777e-05	-7.000865e+01	3.288555e-05	4.274369e+01	1.592101e-01	-1.023126e+02
0.182500	9.668917e-01	-1.893305e+01	1.689903e-05	3.188656e+01	2.825709e-05	1.529788e+00	1.629499e-01	-1.102659e+02
0.185000	9.714884e-01	-1.920562e+01	2.763553e-05	9.828138e+01	4.473617e-06	-9.274447e+01	1.668396e-01	-1.180463e+02
0.187500	9.811830e-01	-1.930283e+01	1.040631e-05	1.695117e+02	9.523655e-06	-3.639812e+01	1.698644e-01	-1.262590e+02
0.190000	9.730395e-01	-1.968066e+01	4.327203e-05	-6.079352e+01	2.180565e-05	-7.350468e+01	1.734959e-01	-1.343835e+02
0.192500	9.708656e-01	-2.014036e+01	1.095410e-05	9.897060e+01	2.739087e-06	-1.471670e+02	1.775195e-01	-1.426475e+02
0.195000	9.701873e-01	-2.083617e+01	1.583860e-05	-1.335300e+02	1.953143e-05	1.717370e+02	1.799535e-01	-1.511530e+02
0.197500	9.675269e-01	-2.095032e+01	1.202856e-05	-1.516452e+02	2.468524e-05	4.340402e+01	1.828060e-01	-1.596001e+02
0.200000	9.741126e-01	-2.078672e+01	4.701486e-06	1.182835e+02	1.689868e-05	1.748650e+02	1.851649e-01	-1.680048e+02
0.202500	9.707881e-01	-2.130907e+01	1.160198e-05	9.322439e+00	1.168253e-05	8.152367e+01	1.871665e-01	-1.763307e+02
0.205000	9.694189e-01	-2.196553e+01	8.921585e-06	1.042190e+02	1.556824e-05	-1.554327e+02	1.879307e-01	1.751981e+02
0.207500	9.698561e-01	-2.206790e+01	1.007001e-05	5.205461e+00	2.201508e-05	-1.020924e+02	1.890731e-01	1.668262e+02
0.210000	9.689363e-01	-2.230239e+01	2.615381e-05	-1.104419e+02	1.142216e-05	2.864848e+01	1.900166e-01	1.587471e+02
0.212500	9.674333e-01	-2.266366e+01	2.010638e-05	5.506148e+01	9.913977e-06	-8.887501e+01	1.916036e-01	1.511080e+02
0.215000	9.689901e-01	-2.322868e+01	4.266109e-06	2.860721e+01	9.070151e-06	6.192457e+01	1.930272e-01	1.430005e+02
0.217500	9.711852e-01	-2.342010e+01	1.294927e-05	1.363521e+02	1.808955e-05	-1.461013e+02	1.939120e-01	1.352232e+02
0.220000	9.705679e-01	-2.383115e+01	1.833884e-05	-4.633337e+01	1.148632e-05	-1.752514e+02	1.948431e-01	1.275995e+02
0.222500	9.681268e-01	-2.416788e+01	1.878286e-05	-1.647524e+02	1.115997e-05	-1.117739e+02	1.973590e-01	1.196372e+02
0.225000	9.698930e-01	-2.456033e+01	6.902088e-06	-1.057447e+02	1.579971e-05	1.695982e+02	1.992344e-01	1.119562e+02
0.227500	9.693834e-01	-2.507094e+01	1.916222e-05	-6.906035e+00	1.110971e-05	-4.640960e+01	2.011463e-01	1.036683e+02
0.230000	9.654531e-01	-2.559307e+01	1.419617e-05	-2.955607e+01	3.266953e-05	-7.278177e+00	2.095927e-01	9.663040e+01
0.232500	9.692792e-01	-2.578893e+01	3.763248e-05	-4.797316e+01	2.910518e-05	-6.810871e+01	2.139710e-01	8.850030e+01
0.235000	9.676498e-01	-2.624180e+01	1.118562e-05	-1.271700e+02	2.752328e-05	1.700232e+02	2.169954e-01	8.047609e+01
0.237500	9.729578e-01	-2.663739e+01	1.058988e-05	-1.024711e+02	1.033374e-05	4.016722e+01	2.189584e-01	7.204739e+01
0.240000	9.641533e-01	-2.708737e+01	1.555866e-05	-9.187979e+01	2.556465e-05	3.391758e+01	2.234532e-01	6.343321e+01
0.242500	9.599828e-01	-2.727211e+01	7.266189e-06	-5.116012e+01	1.888058e-05	1.498544e+02	2.253932e-01	5.495268e+01
0.245000	9.613247e-01	-2.769416e+01	3.313955e-05	1.009285e+02	1.993285e-05	-3.925474e+01	2.276397e-01	4.619364e+01
0.247500	9.680296e-01	-2.831176e+01	1.431874e-05	2.572338e+01	5.836688e-06	-3.062431e+01	2.294893e-01	3.742727e+01
0.250000	9.606582e-01	-2.882690e+01	1.614094e-05	-1.608688e+02	3.449403e-05	5.288833e+00	2.305505e-01	2.870488e+01
0.252500	9.600994e-01	-2.908255e+01	3.131608e-05	-8.861720e+00	4.785687e-06	-1.382678e+02	2.316593e-01	1.994957e+01
0.255000	9.623830e-01	-2.966556e+01	2.587875e-05	-3.105676e+01	1.470291e-05	1.591499e+01	2.320087e-01	1.099141e+01
0.257500	9.545560e-01	-3.051012e+01	1.655528e-05	-8.799661e-01	1.621619e-05	-1.271410e+02	2.315821e-01	2.628443e+00
0.260000	9.535561e-01	-3.111785e+01	3.525098e-05	-1.662616e+01	3.803976e-05	-9.037594e+01	2.321327e-01	-5.616905e+00
0.262500	9.501149e-01	-3.165307e+01	9.128824e-06	-1.473759e+02	1.374466e-05	-9.284689e+01	2.317360e-01	-1.374710e+01
0.265000	9.467319e-01	-3.244881e+01	1.714450e-05	1.772133e+02	1.389145e-05	-1.588491e+02	2.317602e-01	-2.195621e+01
0.267500	9.378806e-01	-3.293977e+01	2.380895e-05	-7.900628e+00	2.486154e-05	-5.490968e+01	2.316190e-01	-2.980106e+01
0.270000	9.292723e-01	-3.339469e+01	2.206189e-05	-8.289749e+01	3.522038e-05	-3.267732e+01	2.321972e-01	-3.794417e+01
0.272500	9.200850e-01	-3.372011e+01	3.203807e-05	-2.130346e+01	2.042469e-05	-3.219870e+01	2.329863e-01	-4.518972e+01
0.275000	9.148094e-01	-3.401238e+01	4.262633e-05	1.038434e+01	1.362818e-05	-9.828332e-01	2.354315e-01	-5.299791e+01
0.277500	9.058851e-01	-3.436140e+01	1.015885e-05	3.820945e+01	5.451276e-06	1.223636e-01	2.386979e-01	-6.142636e+01
0.280000	8.953423e-01	-3.454372e+01	5.666195e-06	-2.038520e+01	2.141308e-05	-5.934482e+01	2.413349e-01	-6.890293e+01
0.282500	8.879797e-01	-3.496266e+01	2.706912e-05	-1.420009e+02	2.479932e-05	-8.469491e+01	2.446472e-01	-7.635985e+01
0.285000	8.848948e-01	-3.479388e+01	4.548160e-05	-1.233621e+02	1.145709e-05	-1.257735e+02	2.490091e-01	-8.453920e+01
0.287500	8.790743e-01	-3.501418e+01	6.294523e-05	-1.077208e+02	3.681465e-05	-1.346495e+02	2.541126e-01	-9.247446e+01
0.290000	8.762583e-01	-3.472948e+01	3.331324e-05	-1.035786e+02	1.236458e-05	-2.736218e+01	2.583500e-01	-1.007153e+02
0.292500	8.719271e-01	-3.467791e+01	8.978436e-06	-1.550312e+02	1.631014e-06	1.351373e+02	2.634241e-01	-1.087456e+02
0.295000	8.716373e-01	-3.453022e+01	2.620633e-05	3.161753e+00	2.253891e-05	-1.047044e+01	2.682079e-01	-1.171394e+02
0.297500	8.782585e-01	-3.427208e+01	3.829347e-05	-1.677559e+02	2.618608e-06	1.193730e+02	2.716873e-01	-1.255530e+02
0.300000	8.831835e-01	-3.466861e+01	3.042428e-05	8.939666e+01	5.899975e-06	7.878142e+01	2.760193e-01	-1.341242e+02
0.302500	8.883324e-01	-3.495397e+01	8.179670e-06	-1.059922e+01	2.855637e-05	-2.035221e+01	2.792406e-01	-1.427031e+02
0.305000	8.876489e-01	-3.528831e+01	3.374587e-05	8.863049e+01	2.456383e-05	-3.882841e+01	2.809096e-01	-1.511643e+02
0.307500	8.889936e-01	-3.563737e+01	3.521463e-05	3.559087e+01	2.122746e-05	5.727489e+01	2.830037e-01	-1.594877e+02
0.310000	8.858143e-01	-3.617032e+01	2.345630e-05	4.882648e+01	6.916381e-06	1.182232e+02	2.834670e-01	-1.679951e+02
0.312500	8.930785e-01	-3.630994e+01	3.015287e-05	-4.585846e+01	3.852865e-05	-7.783747e-01	2.833464e-01	-1.764123e+02
0.315000	8.969990e-01	-3.698764e+01	2.614734e-05	1.317529e+02	2.726599e-05	-2.493342e+01	2.832211e-01	1.754235e+02
0.317500	8.995115e-01	-3.753588e+01	4.238604e-05	-1.151473e+02	4.000549e-05	-3.447362e+01	2.840052e-01	1.673533e+02
0.320000	9.017573e-01	-3.811562e+01	1.814032e-05	2.876776e+01	1.904544e-05	-1.438653e+02	2.837341e-01	1.594277e+02
0.322500	9.010641e-01	-3.892922e+01	3.316240e-06	1.530733e+02	2.804728e-05	-1.466842e+01	2.835199e-01	1.515771e+02
0.325000	9.023117e-01	-3.955051e+01	2.712453e-05	-3.279739e+01	1.331411e-05	1.790621e+02	2.820212e-01	1.433527e+02
0.327500	9.015901e-01	-4.016712e+01	5.437560e-06	-1.470251e+02	1.626632e-06	-5.645095e+01	2.835093e-01	1.362430e+02
0.330000	9.081169e-01	-4.123139e+01	1.607591e-05	-1.230585e+02	1.223246e-05	-1.254023e+02	2.848169e-01	1.285639e+02
0.332500	9.045220e-01	-4.197500e+01	2.103498e-05	-9.643152e+01	9.332265e-06	-1.102515e+02	2.849848e-01	1.208275e+02
0.335000	9.003193e-01	-4.315398e+01	2.532257e-05	-2.475160e+01	7.272060e-06	4.113415e+01	2.890216e-01	1.129114e+02
0.337500	9.011642e-01	-4.369649e+01	1.844372e-05	-9.389721e+01	8.121121e-06	-1.357016e+02	2.871265e-01	1.049993e+02
0.340000	8.922978e-01	-4.421017e+01	3.170433e-06	6.642072e+01	3.422330e-06	-3.635379e+01	2.911805e-01	9.776111e+01
0.342500	8.898464e-01	-4.560859e+01	3.083160e-05	-1.459461e+02	2.706854e-05	1.462771e+02	2.930950e-01	8.934077e+01
0.345000	8.847590e-01	-4.602578e+01	1.865347e-05	8.651645e+01	3.456372e-06	1.108596e+02	2.950926e-01	8.168721e+01
0.347500	8.808210e-01	-4.727176e+01	3.525100e-05	1.422896e+02	5.393380e-05	-7.616872e+00	3.005041e-01	7.372851e+01
0.350000	8.783674e-01	-4.779380e+01	2.470594e-06	-1.352156e+01	2.260621e-05	9.093478e+01	3.021934e-01	6.537216e+01
0.352500	8.735735e-01	-4.869658e+01	4.577090e-05	1.212941e+02	4.143643e-05	3.172527e+01	3.050952e-01	5.704749e+01
0.355000	8.669744e-01	-4.972290e+01	2.885343e-05	2.786862e+01	8.168790e-06	1.251242e+02	3.083844e-01	4.873327e+01
0.357500	8.656260e-01	-5.069411e+01	1.372979e-05	7.394143e+01	3.168962e-06	1.541240e+02	3.114966e-01	4.027525e+01
0.360000	8.633920e-01	-5.179944e+01	1.957341e-05	5.935696e+01	3.776057e-05	-9.795468e+00	3.128882e-01	3.159488e+01
0.362500	8.590012e-01	-5.294324e+01	9.423536e-06	9.904946e+01	3.621319e-05	5.318197e+01	3.174969e-01	2.324812e+01
0.365000	8.492917e-01	-5.421557e+01	3.274940e-05	1.387737e+01	2.402320e-05	8.307551e-01	3.177340e-01	1.437592e+01
0.367500	8.461511e-01	-5.516474e+01	3.817930e-05	3.072023e+01	1.349273e-05	-1.307702e+01	3.167043e-01	5.834740e+00
0.370000	8.371303e-01	-5.642289e+01	3.209081e-05	-5.604060e+01	2.743912e-05	1.129391e+01	3.179825e-01	-2.590827e+00
0.372500	8.339336e-01	-5.771213e+01	2.206443e-05	-2.933272e+01	1.818403e-05	-2.952176e+01	3.197651e-01	-1.098714e+01
0.375000	8.170991e-01	-5.903991e+01	6.786255e-06	1.569713e+02	8.732670e-06	-5.832624e+01	3.202610e-01	-1.925939e+01
0.377500	8.055236e-01	-6.037951e+01	3.964021e-05	-2.675648e+01	2.995432e-05	-7.629903e+01	3.192953e-01	-2.771863e+01
0.380000	8.013774e-01	-6.205214e+01	3.778883e-06	-6.197443e+01	3.634517e-05	-9.826506e+01	3.219495e-01	-3.595689e+01
0.382500	7.946476e-01	-6.344971e+01	9.682881e-06	-1.592030e+02	1.017540e-05	1.762215e+02	3.232978e-01	-4.408212e+01
0.385000	7.859741e-01	-6.532958e+01	2.934579e-05	-1.522899e+02	1.606444e-05	-1.538613e+02	3.223246e-01	-5.267550e+01
0.387500	7.564275e-01	-6.736840e+01	2.257046e-05	-1.479763e+02	1.747588e-05	-1.413173e+02	3.271317e-01	-6.064428e+01
0.390000	7.383452e-01	-6.932532e+01	2.339541e-05	-9.208513e+01	1.102908e-05	-1.054762e+02	3.274693e-01	-6.845836e+01
0.392500	7.090470e-01	-7.134982e+01	1.023938e-05	-1.326575e+02	1.465670e-05	-1.337616e+02	3.300200e-01	-7.679134e+01
0.395000	6.828827e-01	-7.290443e+01	1.264509e-05	-6.866407e+01	1.970574e-05	-1.610992e+02	3.344870e-01	-8.466548e+01
0.397500	6.586769e-01	-7.477515e+01	2.334212e-05	-1.034696e+02	4.364079e-05	1.669460e+02	3.338862e-01	-9.287627e+01
0.400000	6.284198e-01	-7.627418e+01	3.179495e-05	-1.731802e+02	1.449010e-05	-1.726850e+02	3.363118e-01	-1.008847e+02
0.402500	5.909699e-01	-7.732517e+01	1.377926e-05	-1.131010e+02	2.202103e-05	9.404522e+01	3.393151e-01	-1.089352e+02
0.405000	5.585860e-01	-7.776488e+01	3.233659e-05	-1.395555e+02	3.658747e-05	9.500006e+01	3.419449e-01	-1.172534e+02
0.407500	5.321127e-01	-7.733468e+01	2.977458e-05	1.747092e+02	3.417750e-05	1.281677e+02	3.453940e-01	-1.251722e+02
0.410000	5.142670e-01	-7.705151e+01	7.277803e-05	1.504497e+02	9.529869e-06	9.715210e+01	3.463767e-01	-1.331435e+02
0.412500	4.987132e-01	-7.709394e+01	6.797033e-05	1.468212e+02	3.963278e-05	6.866863e+01	3.491467e-01	-1.412377e+02
0.415000	4.815848e-01	-7.738298e+01	5.008316e-05	1.206911e+02	4.590917e-05	4.691863e+01	3.520737e-01	-1.491844e+02
0.417500	4.618636e-01	-7.819967e+01	5.839156e-05	8.307448e+01	4.842313e-05	4.576365e+01	3.526519e-01	-1.573184e+02
0.420000	4.442720e-01	-7.875645e+01	4.787894e-05	7.059088e+01	7.459988e-05	1.207757e+01	3.541937e-01	-1.650813e+02
0.422500	4.223376e-01	-7.857639e+01	7.503984e-05	5.800788e+01	4.856456e-05	-2.442212e+01	3.559716e-01	-1.731412e+02
0.425000	4.078967e-01	-7.885737e+01	5.976151e-05	1.133865e+01	5.649305e-05	-3.133374e+01	3.578727e-01	1.787540e+02
0.427500	3.934276e-01	-7.921217e+01	6.714084e-05	-1.640784e+01	7.290201e-05	-7.404897e+01	3.576569e-01	1.708632e+02
0.430000	3.757839e-01	-8.039310e+01	6.098153e-05	-4.518315e+01	5.571802e-05	-8.055657e+01	3.613009e-01	1.627895e+02
0.432500	3.615833e-01	-8.080162e+01	4.535376e-05	-4.968073e+01	4.945534e-05	-1.091228e+02	3.640570e-01	1.550031e+02
0.435000	3.416462e-01	-8.244965e+01	4.509484e-05	-6.488931e+01	6.136107e-05	-1.334798e+02	3.649480e-01	1.472973e+02
0.437500	3.165407e-01	-8.286127e+01	3.883429e-05	-1.086175e+02	3.574756e-05	-9.285525e+01	3.644860e-01	1.391659e+02
0.440000	2.995526e-01	-8.316604e+01	3.195054e-05	-8.138996e+01	2.964214e-05	-1.588498e+02	3.692549e-01	1.313545e+02
0.442500	2.814123e-01	-8.438028e+01	5.349204e-05	-1.048744e+02	3.526021e-05	-1.717021e+02	3.697767e-01	1.231563e+02
0.445000	2.621865e-01	-8.591509e+01	2.656405e-05	-1.227830e+02	2.565792e-05	1.569155e+02	3.731593e-01	1.151001e+02
0.447500	2.417356e-01	-8.900537e+01	1.081559e-05	-1.247232e+02	1.585516e-05	-1.418343e+02	3.724537e-01	1.071165e+02
0.450000	2.093342e-01	-9.182122e+01	1.136346e-05	1.479877e+02	3.314734e-05	1.468475e+02	3.725053e-01	9.896921e+01
0.452500	1.787471e-01	-9.333759e+01	2.109984e-05	1.141802e+02	3.377086e-05	1.218483e+02	3.732298e-01	9.103541e+01
0.455000	1.470103e-01	-9.609523e+01	3.214377e-05	1.591222e+02	1.695734e-05	1.480173e+02	3.742622e-01	8.279560e+01
0.457500	1.135132e-01	-9.791961e+01	1.595753e-05	-1.595555e+02	1.575560e-05	8.307409e+01	3.765083e-01	7.441821e+01
0.460000	8.017417e-02	-1.012966e+02	4.224001e-05	8.382833e+01	3.304675e-06	3.114999e+01	3.752488e-01	6.597600e+01
0.462500	3.871557e-02	-1.078592e+02	3.086392e-05	1.539530e+02	1.823390e-05	2.860977e+01	3.769589e-01	5.812934e+01
0.465000	7.429699e-03	7.220812e+01	2.374445e-05	8.577123e+01	6.586765e-06	-1.712942e+02	3.780715e-01	4.971123e+01
0.467500	5.325916e-02	6.012685e+01	1.158541e-05	-7.822003e+00	1.783742e-05	3.567260e+01	3.783608e-01	4.172718e+01
0.470000	9.708224e-02	5.220341e+01	2.029493e-05	4.043274e+01	7.985419e-06	1.403519e+02	3.846077e-01	3.383066e+01
0.472500	1.318643e-01	4.773657e+01	1.603373e-05	1.114831e+02	4.096888e-05	1.221811e+00	3.863872e-01	2.577979e+01
0.475000	1.603873e-01	4.497300e+01	1.970771e-05	-1.192910e+01	1.425179e-05	-1.132095e+01	3.865215e-01	1.753511e+01
0.477500	1.876519e-01	4.386172e+01	2.184640e-05	-3.075683e+01	9.328611e-06	-4.583324e+01	3.871519e-01	9.368027e+00
0.480000	2.161203e-01	4.278690e+01	2.652794e-05	-1.140670e+02	3.459846e-05	-8.384989e+01	3.907578e-01	1.311212e+00
0.482500	2.457523e-01	4.180992e+01	5.861230e-06	-5.912329e+01	1.040887e-05	-2.289433e+01	3.909586e-01	-6.868173e+00
0.485000	2.760477e-01	3.999291e+01	2.051062e-05	-4.019664e+01	1.666023e-05	-1.032858e+02	3.916612e-01	-1.551981e+01
0.487500	3.037332e-01	3.780656e+01	4.919739e-06	-1.733744e+02	5.888374e-06	-1.493311e+02	3.935304e-01	-2.345180e+01
0.490000	3.272130e-01	3.562899e+01	1.268669e-05	9.412128e+01	3.036182e-05	1.522528e+02	3.969355e-01	-3.211932e+01
0.492500	3.465382e-01	3.442198e+01	2.923577e-05	-6.602824e+01	6.078389e-06	-1.591344e+01	4.016493e-01	-4.012580e+01
0.495000	3.673732e-01	3.331320e+01	1.950117e-05	-6.828293e+01	1.788323e-05	1.504846e+02	4.025880e-01	-4.826637e+01
0.497500	3.929108e-01	3.206742e+01	3.354972e-05	3.728406e+01	2.074314e-05	-1.152845e+02	4.074597e-01	-5.636230e+01
0.500000	4.182605e-01	3.061604e+01	3.774001e-05	-9.828607e+01	2.250050e-05	-1.692026e+02	4.071228e-01	-6.462972e+01
0.502500	4.360449e-01	2.867446e+01	3.123778e-05	-1.168019e+02	2.628106e-05	3.979128e+01	4.101169e-01	-7.340570e+01
0.505000	4.534860e-01	2.669438e+01	1.535289e-05	3.065022e+01	2.084961e-05	7.258567e+01	4.151767e-01	-8.102650e+01
0.507500	4.665432e-01	2.576804e+01	1.811935e-05	1.413581e+02	3.465676e-05	1.170897e+02	4.142838e-01	-8.964968e+01
0.510000	4.832824e-01	2.441985e+01	1.556895e-05	1.254090e+02	2.332333e-05	1.187408e+02	4.175488e-01	-9.775819e+01
0.512500	5.008603e-01	2.321349e+01	1.602305e-05	1.513002e+02	1.974025e-05	7.005016e+01	4.202864e-01	-1.058094e+02
0.515000	5.154452e-01	2.180204e+01	2.083703e-05	7.397335e+01	1.525582e-05	-9.302345e+01	4.184554e-01	-1.139536e+02
0.517500	5.240851e-01	2.050646e+01	1.920636e-05	1.365640e+02	1.082059e-05	1.687935e+02	4.221392e-01	-1.219747e+02
0.520000	5.292218e-01	1.939935e+01	1.037363e-05	-8.301790e+01	2.692144e-05	2.598709e+01	4.240421e-01	-1.298277e+02
0.522500	5.364455e-01	1.895548e+01	2.728817e-05	1.035240e+02	1.947975e-05	4.418450e+01	4.232815e-01	-1.383625e+02
0.525000	5.493345e-01	1.875302e+01	4.072506e-05	7.812268e+01	4.385627e-05	9.242930e+01	4.260988e-01	-1.461665e+02
