! Version 1.0
! Name        :	Dipolo_azul_1_VNA_LAB-S11-VF.s1p
! Measurement : [new]
! Date        :	07-05-26 11:51:14
! Generated by:	MiQVNA
# HZ S DB R 50
! Freq	ReS11	ImS11
400000000	-6.24537691196806	-62.5362149535691
401000000	-6.34549303530376	-63.3133264464003
402000000	-6.40138034310154	-63.9809188366092
403000000	-6.41876849264575	-64.3264948456721
404000000	-6.40971553380455	-65.7321044833157
405000000	-6.38912370892045	-66.9432911262591
406000000	-6.39487007903817	-68.3652458114569
407000000	-6.41932696985848	-70.4331087192967
408000000	-6.47134348826879	-72.3890893006384
409000000	-6.5472882205436	-75.1388647686049
410000000	-6.66090732636839	-77.5708084883033
411000000	-6.79980258130537	-80.5537431087837
412000000	-6.99434939760913	-82.8837024026819
413000000	-7.25048144898825	-85.9949023754873
414000000	-7.56816650000646	-89.3804466044895
415000000	-7.94162774770955	-93.1194264922525
416000000	-8.46100012064811	-95.8146792356151
417000000	-8.95241467000011	-98.6706990797005
418000000	-9.43609991392593	-101.457459749712
419000000	-9.97940610405107	-104.48138481301
420000000	-10.5549911726262	-107.915430920047
421000000	-11.1594168357899	-110.912178077789
422000000	-11.994392380629	-114.039390663137
423000000	-12.972991963288	-116.35725789997
424000000	-13.7785579164936	-117.830073675391
425000000	-14.5781999816621	-119.330862176677
426000000	-15.2430152827188	-121.37453892006
427000000	-15.6659914263674	-124.745447179168
428000000	-16.2927613296818	-130.638239461836
429000000	-16.9742170163848	-138.422736744153
430000000	-17.8933001421217	-146.760610311398
431000000	-18.8342217268223	-155.563730622161
432000000	-19.9366488621871	-168.509501606497
433000000	-20.7714769178733	177.486396205668
434000000	-21.3727836051435	162.352893562591
435000000	-21.6825317909285	145.50591991279
436000000	-21.8821017331367	130.114959523238
437000000	-21.8788420548993	120.960026069194
438000000	-21.2003191721956	112.058443086171
439000000	-19.9970385577655	104.734469883716
440000000	-19.2723857157535	101.627738895613
441000000	-18.1255228761689	97.1818592294886
442000000	-17.0953662066724	93.8063428069404
443000000	-16.2840380079511	91.7921306657555
444000000	-15.2866030213848	88.8645762377001
445000000	-14.3672693123857	85.4730044697995
446000000	-13.7056508492661	81.9156535089047
447000000	-13.2134241891625	78.8146979500013
448000000	-12.5095092558333	76.3611858035064
449000000	-12.1123856962416	74.5466911167661
450000000	-11.6019115430145	72.8122954352301
451000000	-10.9177427929168	70.3943112410299
452000000	-10.2513864828622	68.2647460639985
453000000	-9.81927781999131	65.7236361515958
454000000	-9.52317473054542	63.1987993598052
455000000	-9.06215951453403	61.1029284649914
456000000	-8.75589565771872	58.864110953034
457000000	-8.39348260664357	56.7638319882898
458000000	-8.06813676890296	54.4291389000185
459000000	-7.86981311293852	51.9174483735681
460000000	-7.80308864827496	49.2352265019777
461000000	-7.49361894595976	47.4566247543003
462000000	-7.51814542390568	45.2949660160546
463000000	-7.60003628854098	43.3171835646558
464000000	-7.57030966153137	42.2032436380388
465000000	-7.51153977589628	41.6361866023536
466000000	-7.48994792271407	40.8736068110114
467000000	-7.4085570004008	39.7989681354597
468000000	-7.26816770324357	38.8938535533474
469000000	-7.34572841085407	37.3396951534688
470000000	-7.30541709427964	36.6362923226371
471000000	-7.38565989291464	36.6711099940569
472000000	-7.51290074116087	36.7626975225341
473000000	-7.50188465699887	37.3203851663233
474000000	-7.39902402386841	38.2476785880063
475000000	-7.32249342970543	38.5261514797246
476000000	-7.38002868856388	38.4312670012418
477000000	-7.09706613978604	39.1656727604757
478000000	-7.01663735714034	39.3639422967053
479000000	-6.85151631280491	39.7904649048043
480000000	-6.7149308460222	40.4037565258537
481000000	-6.54141902654393	40.9045496567931
482000000	-6.3417982811158	41.5992831971311
483000000	-6.05593685208293	41.832692556921
484000000	-5.829356744411	41.7005084902925
485000000	-5.52849993285748	41.0771704169922
486000000	-5.30327645247456	40.4100562469179
487000000	-5.0066714404219	39.6578943695466
488000000	-4.88107385845459	38.4655755700221
489000000	-4.80827814286562	37.1535056312434
490000000	-4.69918350144903	36.4123304816586
491000000	-4.58523302068877	35.5705115282215
492000000	-4.54073386176804	34.8308250854699
493000000	-4.40196885595155	34.4070352927933
494000000	-4.31667931532705	33.7286811188536
495000000	-4.16388887160191	33.1830152737152
496000000	-4.08265896630605	32.4328476874948
497000000	-3.95334109488343	31.971138435799
498000000	-3.96803383201091	30.9111387385992
499000000	-3.88462150894477	30.3435742470048
500000000	-3.80847349756652	29.7681918900979
501000000	-3.80299255739539	29.1105702240921
502000000	-3.83443289414471	28.5204796326457
503000000	-3.78298688471157	28.240561786036
504000000	-3.67119700542245	28.1328882616131
505000000	-3.65623923118948	27.5504234391982
506000000	-3.51127634007594	27.5071358178285
507000000	-3.47314708541644	27.1826153162476
508000000	-3.35022205528529	26.8770747264703
509000000	-3.26695692161592	26.0099282655181
510000000	-3.23286913904229	25.389013906723
511000000	-3.15418960445647	24.7866673031941
512000000	-3.15494854397188	24.0982920012364
513000000	-3.05970475304854	23.560069866963
514000000	-3.06987453314757	22.8297755329846
515000000	-3.07443533700554	22.3933953130246
516000000	-3.03968535107255	22.1600914348926
517000000	-2.96331438671795	22.0716090745917
518000000	-3.05403206911008	21.4216245805848
519000000	-2.97522332942506	21.3274288212361
520000000	-2.94500013440559	20.8996723487907
521000000	-2.96937583083845	20.3685556093645
522000000	-2.89042884966864	20.4398085744087
523000000	-2.8299601364183	20.2152283506192
524000000	-2.83766424238841	19.7943856645867
525000000	-2.75009746410329	19.5759972182551
526000000	-2.57885813135809	19.8232071070268
527000000	-2.60841542519288	18.9403110628431
528000000	-2.58566340460658	18.3565917278675
529000000	-2.52027554150603	17.9153253595015
530000000	-2.50739235773848	17.4790672103108
531000000	-2.5683466969367	16.8179169777341
532000000	-2.54126935623358	16.4300577139832
533000000	-2.5195337829384	16.3136888049326
534000000	-2.53193783816962	15.8026835260574
535000000	-2.52295818474163	15.8241927895439
536000000	-2.53888502389554	15.5522788195781
537000000	-2.51250208703314	15.5641756160391
538000000	-2.52743431013218	15.4682700388339
539000000	-2.51367575317374	15.5142913999978
540000000	-2.5242257717391	15.3333117611218
541000000	-2.49197382870225	15.2188875288238
542000000	-2.39563452762498	15.6350329023958
543000000	-2.34186320849374	15.6882022010996
544000000	-2.24129256361763	15.8131536713461
545000000	-2.23547014929509	15.3187242813682
546000000	-2.15200022064598	15.2985316484851
547000000	-2.08789594651966	14.8966744839596
548000000	-1.97569869130374	14.8409929776139
549000000	-2.00985766302462	14.2133774115411
550000000	-1.94266405244858	14.0191886829929
551000000	-1.8472601441827	13.8433407707335
552000000	-1.76041537847797	13.5631424023911
553000000	-1.72637117431704	13.1062878370776
554000000	-1.75633672386109	12.2005670590512
555000000	-1.64265488260991	12.2892474304178
556000000	-1.64717139578369	11.6917882836586
557000000	-1.69365086829543	10.9517479935113
558000000	-1.61965859833352	10.733162740551
559000000	-1.62469123770852	10.3909002650046
560000000	-1.5748338061234	10.0843672107996
561000000	-1.57724569006668	9.74701903069212
562000000	-1.50598476933785	9.79495832434372
563000000	-1.54066478845759	9.24731383886161
564000000	-1.51937702157944	9.02281571050092
565000000	-1.48029182340342	8.80361004133741
566000000	-1.48243252054198	8.41361026345516
567000000	-1.46888792269747	8.0333925214098
568000000	-1.47194417088785	7.6450025685477
569000000	-1.42336811566889	7.61148277958627
570000000	-1.44312077583651	7.03903981315079
571000000	-1.3985861481018	7.18163395879713
572000000	-1.37810896878153	6.91392828126342
573000000	-1.33325328425041	6.8921601337582
574000000	-1.34273153539425	6.37950825666553
575000000	-1.3164637390588	5.95569410145152
576000000	-1.35756454787952	5.38815606809331
577000000	-1.31052549674857	5.39852760565087
578000000	-1.27202104922638	5.22344393046447
579000000	-1.28790981676966	4.84878250585736
580000000	-1.27289571485638	4.6965842076824
581000000	-1.23454526077926	4.40162421577515
582000000	-1.21248379609756	4.17634901895748
583000000	-1.2469023152129	3.68677086891
584000000	-1.25266170496419	3.47952924433182
585000000	-1.22923211277009	3.24376931369287
586000000	-1.23839452103482	2.95022988919487
587000000	-1.22534113049401	2.64825554137161
588000000	-1.24719612363299	2.39457977660593
589000000	-1.23246039145184	2.19718333887143
590000000	-1.20105495964847	2.1675376027742
591000000	-1.17196944230459	2.31458296335622
592000000	-1.22509082157258	1.66010336426359
593000000	-1.16865984076799	1.64187369080695
594000000	-1.13122112867844	1.47905419326923
595000000	-1.143389464712	1.03146937642366
596000000	-1.14790581896369	0.807350460199386
597000000	-1.09110612887097	0.870494948489514
598000000	-1.05316721979156	0.762477021176734
599000000	-1.05607060612029	0.529216988417489
600000000	-1.06319389007509	0.267634860327108
